! Touchstone file from project 
# GHZ S MA R 20.000000
! Modal data exported
! Port[1] = IF_output:1
! Port[2] = RF_input:1
0.000000E+000    1.313097E-002    0.000000E+000    1.000000E+000    0.000000E+000    1.000000E+000    0.000000E+000    1.609149E-002    1.800000E+002    
! Gamma  3.731395E-001    0.000000E+000    0.000000E+000    0.000000E+000    
! Port Impedance  2.000000E+001    0.000000E+000    2.000000E+001    0.000000E+000    

1.000000E-001    1.398291E-003    7.378586E+001    9.999407E-001    -3.214048E-001   9.999407E-001    -3.214048E-001   1.374113E-003    1.014632E+002    
! Gamma  6.515811E-003    5.874634E+000    0.000000E+000    0.000000E+000    
! Port Impedance  2.000000E+001    0.000000E+000    2.000000E+001    0.000000E+000    

2.000000E-001    2.636921E-003    7.751493E+001    9.999122E-001    -6.422797E-001   9.999122E-001    -6.422797E-001   2.640153E-003    9.281273E+001    
! Gamma  1.172533E-002    1.176583E+001    0.000000E+000    0.000000E+000    
! Port Impedance  2.000000E+001    0.000000E+000    2.000000E+001    0.000000E+000    

3.000000E-001    3.922263E-003    8.026778E+001    9.998741E-001    -9.623137E-001   9.998741E-001    -9.623137E-001   3.924632E-003    9.133682E+001    
! Gamma  1.944327E-002    1.765107E+001    0.000000E+000    0.000000E+000    
! Port Impedance  2.000000E+001    0.000000E+000    2.000000E+001    0.000000E+000    

4.000000E-001    5.215696E-003    8.161958E+001    9.998336E-001    -1.281565E+000   9.998336E-001    -1.281565E+000   5.215971E-003    9.073136E+001    
! Gamma  2.862124E-002    2.353305E+001    0.000000E+000    0.000000E+000    
! Port Impedance  2.000000E+001    0.000000E+000    2.000000E+001    0.000000E+000    

5.000000E-001    6.512746E-003    8.227408E+001    9.997947E-001    -1.600225E+000   9.997947E-001    -1.600225E+000   6.511089E-003    9.037235E+001    
! Gamma  3.834232E-002    2.941259E+001    0.000000E+000    0.000000E+000    
! Port Impedance  2.000000E+001    0.000000E+000    2.000000E+001    0.000000E+000    

6.000000E-001    7.812245E-003    8.255071E+001    9.997585E-001    -1.918483E+000   9.997585E-001    -1.918483E+000   7.808916E-003    9.011488E+001    
! Gamma  4.796546E-002    3.529033E+001    0.000000E+000    0.000000E+000    
! Port Impedance  2.000000E+001    0.000000E+000    2.000000E+001    0.000000E+000    

7.000000E-001    9.113844E-003    8.260281E+001    9.997250E-001    -2.236475E+000   9.997250E-001    -2.236475E+000   9.109088E-003    8.990885E+001    
! Gamma  5.712850E-002    4.116693E+001    0.000000E+000    0.000000E+000    
! Port Impedance  2.000000E+001    0.000000E+000    2.000000E+001    0.000000E+000    

8.000000E-001    1.041748E-002    8.251151E+001    9.996934E-001    -2.554281E+000   9.996934E-001    -2.554281E+000   1.041153E-002    8.973245E+001    
! Gamma  6.568071E-002    4.704293E+001    0.000000E+000    0.000000E+000    
! Port Impedance  2.000000E+001    0.000000E+000    2.000000E+001    0.000000E+000    

9.000000E-001    1.172323E-002    8.232342E+001    9.996630E-001    -2.871944E+000   9.996630E-001    -2.871944E+000   1.171628E-002    8.957463E+001    
! Gamma  7.360446E-002    5.291879E+001    0.000000E+000    0.000000E+000    
! Port Impedance  2.000000E+001    0.000000E+000    2.000000E+001    0.000000E+000    

1.000000E+000    1.303119E-002    8.206710E+001    9.996331E-001    -3.189480E+000   9.996331E-001    -3.189480E+000   1.302347E-002    8.942919E+001    
! Gamma  8.095333E-002    5.879488E+001    0.000000E+000    0.000000E+000    
! Port Impedance  2.000000E+001    0.000000E+000    2.000000E+001    0.000000E+000    

1.100000E+000    1.434154E-002    8.176101E+001    9.996030E-001    -3.506894E+000   9.996030E-001    -3.506894E+000   1.433325E-002    8.929236E+001    
! Gamma  8.781151E-002    6.467147E+001    0.000000E+000    0.000000E+000    
! Port Impedance  2.000000E+001    0.000000E+000    2.000000E+001    0.000000E+000    

1.200000E+000    1.565442E-002    8.141760E+001    9.995725E-001    -3.824181E+000   9.995725E-001    -3.824181E+000   1.564577E-002    8.916168E+001    
! Gamma  9.427034E-002    7.054877E+001    0.000000E+000    0.000000E+000    
! Port Impedance  2.000000E+001    0.000000E+000    2.000000E+001    0.000000E+000    

1.300000E+000    1.697001E-002    8.104557E+001    9.995410E-001    -4.141332E+000   9.995410E-001    -4.141332E+000   1.696123E-002    8.903551E+001    
! Gamma  1.004164E-001    7.642696E+001    0.000000E+000    0.000000E+000    
! Port Impedance  2.000000E+001    0.000000E+000    2.000000E+001    0.000000E+000    

1.400000E+000    1.828848E-002    8.065117E+001    9.995084E-001    -4.458337E+000   9.995084E-001    -4.458337E+000   1.827979E-002    8.891269E+001    
! Gamma  1.063261E-001    8.230617E+001    0.000000E+000    0.000000E+000    
! Port Impedance  2.000000E+001    0.000000E+000    2.000000E+001    0.000000E+000    

1.500000E+000    1.961002E-002    8.023903E+001    9.994745E-001    -4.775184E+000   9.994745E-001    -4.775184E+000   1.960162E-002    8.879238E+001    
! Gamma  1.120647E-001    8.818651E+001    0.000000E+000    0.000000E+000    
! Port Impedance  2.000000E+001    0.000000E+000    2.000000E+001    0.000000E+000    

1.600000E+000    2.093477E-002    7.981263E+001    9.994391E-001    -5.091860E+000   9.994391E-001    -5.091860E+000   2.092691E-002    8.867393E+001    
! Gamma  1.176859E-001    9.406808E+001    0.000000E+000    0.000000E+000    
! Port Impedance  2.000000E+001    0.000000E+000    2.000000E+001    0.000000E+000    

1.700000E+000    2.226292E-002    7.937466E+001    9.994020E-001    -5.408355E+000   9.994020E-001    -5.408355E+000   2.225581E-002    8.855688E+001    
! Gamma  1.232337E-001    9.995096E+001    0.000000E+000    0.000000E+000    
! Port Impedance  2.000000E+001    0.000000E+000    2.000000E+001    0.000000E+000    

1.800000E+000    2.359463E-002    7.892723E+001    9.993633E-001    -5.724658E+000   9.993633E-001    -5.724658E+000   2.358848E-002    8.844083E+001    
! Gamma  1.287434E-001    1.058352E+002    0.000000E+000    0.000000E+000    
! Port Impedance  2.000000E+001    0.000000E+000    2.000000E+001    0.000000E+000    

1.900000E+000    2.493003E-002    7.847201E+001    9.993227E-001    -6.040758E+000   9.993227E-001    -6.040758E+000   2.492508E-002    8.832550E+001    
! Gamma  1.342428E-001    1.117210E+002    0.000000E+000    0.000000E+000    
! Port Impedance  2.000000E+001    0.000000E+000    2.000000E+001    0.000000E+000    

2.000000E+000    2.626929E-002    7.801034E+001    9.992803E-001    -6.356646E+000   9.992803E-001    -6.356646E+000   2.626576E-002    8.821064E+001    
! Gamma  1.397541E-001    1.176082E+002    0.000000E+000    0.000000E+000    
! Port Impedance  2.000000E+001    0.000000E+000    2.000000E+001    0.000000E+000    

2.100000E+000    2.761253E-002    7.754331E+001    9.992360E-001    -6.672312E+000   9.992360E-001    -6.672312E+000   2.761063E-002    8.809604E+001    
! Gamma  1.452942E-001    1.234971E+002    0.000000E+000    0.000000E+000    
! Port Impedance  2.000000E+001    0.000000E+000    2.000000E+001    0.000000E+000    

2.200000E+000    2.895990E-002    7.707185E+001    9.991898E-001    -6.987750E+000   9.991898E-001    -6.987750E+000   2.895984E-002    8.798156E+001    
! Gamma  1.508761E-001    1.293876E+002    0.000000E+000    0.000000E+000    
! Port Impedance  2.000000E+001    0.000000E+000    2.000000E+001    0.000000E+000    

2.300000E+000    3.031151E-002    7.659668E+001    9.991415E-001    -7.302952E+000   9.991415E-001    -7.302952E+000   3.031350E-002    8.786705E+001    
! Gamma  1.565095E-001    1.352798E+002    0.000000E+000    0.000000E+000    
! Port Impedance  2.000000E+001    0.000000E+000    2.000000E+001    0.000000E+000    

2.400000E+000    3.166748E-002    7.611846E+001    9.990912E-001    -7.617910E+000   9.990912E-001    -7.617910E+000   3.167171E-002    8.775240E+001    
! Gamma  1.622014E-001    1.411738E+002    0.000000E+000    0.000000E+000    
! Port Impedance  2.000000E+001    0.000000E+000    2.000000E+001    0.000000E+000    

2.500000E+000    3.302791E-002    7.563771E+001    9.990389E-001    -7.932620E+000   9.990389E-001    -7.932620E+000   3.303457E-002    8.763751E+001    
! Gamma  1.679566E-001    1.470696E+002    0.000000E+000    0.000000E+000    
! Port Impedance  2.000000E+001    0.000000E+000    2.000000E+001    0.000000E+000    

2.600000E+000    3.439290E-002    7.515488E+001    9.989846E-001    -8.247077E+000   9.989846E-001    -8.247077E+000   3.440217E-002    8.752230E+001    
! Gamma  1.737783E-001    1.529673E+002    0.000000E+000    0.000000E+000    
! Port Impedance  2.000000E+001    0.000000E+000    2.000000E+001    0.000000E+000    

2.700000E+000    3.576254E-002    7.467036E+001    9.989281E-001    -8.561276E+000   9.989281E-001    -8.561276E+000   3.577458E-002    8.740670E+001    
! Gamma  1.796680E-001    1.588669E+002    0.000000E+000    0.000000E+000    
! Port Impedance  2.000000E+001    0.000000E+000    2.000000E+001    0.000000E+000    

2.800000E+000    3.713690E-002    7.418450E+001    9.988695E-001    -8.875214E+000   9.988695E-001    -8.875214E+000   3.715187E-002    8.729065E+001    
! Gamma  1.856263E-001    1.647685E+002    0.000000E+000    0.000000E+000    
! Port Impedance  2.000000E+001    0.000000E+000    2.000000E+001    0.000000E+000    

2.900000E+000    3.851605E-002    7.369757E+001    9.988087E-001    -9.188888E+000   9.988087E-001    -9.188888E+000   3.853410E-002    8.717410E+001    
! Gamma  1.916528E-001    1.706722E+002    0.000000E+000    0.000000E+000    
! Port Impedance  2.000000E+001    0.000000E+000    2.000000E+001    0.000000E+000    

3.000000E+000    3.990006E-002    7.320984E+001    9.987459E-001    -9.502295E+000   9.987459E-001    -9.502295E+000   3.992130E-002    8.705700E+001    
! Gamma  1.977463E-001    1.765779E+002    0.000000E+000    0.000000E+000    
! Port Impedance  2.000000E+001    0.000000E+000    2.000000E+001    0.000000E+000    

3.100000E+000    4.128896E-002    7.272152E+001    9.986808E-001    -9.815436E+000   9.986808E-001    -9.815436E+000   4.131353E-002    8.693933E+001    
! Gamma  2.039051E-001    1.824857E+002    0.000000E+000    0.000000E+000    
! Port Impedance  2.000000E+001    0.000000E+000    2.000000E+001    0.000000E+000    

3.200000E+000    4.268281E-002    7.223280E+001    9.986135E-001    -1.012831E+001   9.986135E-001    -1.012831E+001   4.271079E-002    8.682106E+001    
! Gamma  2.101272E-001    1.883956E+002    0.000000E+000    0.000000E+000    
! Port Impedance  2.000000E+001    0.000000E+000    2.000000E+001    0.000000E+000    

3.300000E+000    4.408162E-002    7.174385E+001    9.985441E-001    -1.044091E+001   9.985441E-001    -1.044091E+001   4.411312E-002    8.670214E+001    
! Gamma  2.164101E-001    1.943078E+002    0.000000E+000    0.000000E+000    
! Port Impedance  2.000000E+001    0.000000E+000    2.000000E+001    0.000000E+000    

3.400000E+000    4.548542E-002    7.125482E+001    9.984724E-001    -1.075325E+001   9.984724E-001    -1.075325E+001   4.552051E-002    8.658257E+001    
! Gamma  2.227509E-001    2.002222E+002    0.000000E+000    0.000000E+000    
! Port Impedance  2.000000E+001    0.000000E+000    2.000000E+001    0.000000E+000    

3.500000E+000    4.689422E-002    7.076584E+001    9.983984E-001    -1.106532E+001   9.983984E-001    -1.106532E+001   4.693297E-002    8.646234E+001    
! Gamma  2.291470E-001    2.061389E+002    0.000000E+000    0.000000E+000    
! Port Impedance  2.000000E+001    0.000000E+000    2.000000E+001    0.000000E+000    

3.600000E+000    4.830802E-002    7.027701E+001    9.983222E-001    -1.137712E+001   9.983222E-001    -1.137712E+001   4.835047E-002    8.634142E+001    
! Gamma  2.355952E-001    2.120580E+002    0.000000E+000    0.000000E+000    
! Port Impedance  2.000000E+001    0.000000E+000    2.000000E+001    0.000000E+000    

3.700000E+000    4.972681E-002    6.978843E+001    9.982438E-001    -1.168867E+001   9.982438E-001    -1.168867E+001   4.977300E-002    8.621980E+001    
! Gamma  2.420926E-001    2.179793E+002    0.000000E+000    0.000000E+000    
! Port Impedance  2.000000E+001    0.000000E+000    2.000000E+001    0.000000E+000    

3.800000E+000    5.115057E-002    6.930020E+001    9.981630E-001    -1.199995E+001   9.981630E-001    -1.199995E+001   5.120053E-002    8.609749E+001    
! Gamma  2.486361E-001    2.239031E+002    0.000000E+000    0.000000E+000    
! Port Impedance  2.000000E+001    0.000000E+000    2.000000E+001    0.000000E+000    

3.900000E+000    5.257928E-002    6.881238E+001    9.980800E-001    -1.231098E+001   9.980800E-001    -1.231098E+001   5.263303E-002    8.597447E+001    
! Gamma  2.552227E-001    2.298293E+002    0.000000E+000    0.000000E+000    
! Port Impedance  2.000000E+001    0.000000E+000    2.000000E+001    0.000000E+000    

4.000000E+000    5.401290E-002    6.832503E+001    9.979946E-001    -1.262176E+001   9.979946E-001    -1.262176E+001   5.407043E-002    8.585076E+001    
! Gamma  2.618494E-001    2.357580E+002    0.000000E+000    0.000000E+000    
! Port Impedance  2.000000E+001    0.000000E+000    2.000000E+001    0.000000E+000    

4.100000E+000    5.545139E-002    6.783822E+001    9.979069E-001    -1.293229E+001   9.979069E-001    -1.293229E+001   5.551270E-002    8.572633E+001    
! Gamma  2.685133E-001    2.416891E+002    0.000000E+000    0.000000E+000    
! Port Impedance  2.000000E+001    0.000000E+000    2.000000E+001    0.000000E+000    

4.200000E+000    5.689469E-002    6.735198E+001    9.978169E-001    -1.324257E+001   9.978169E-001    -1.324257E+001   5.695977E-002    8.560121E+001    
! Gamma  2.752116E-001    2.476228E+002    0.000000E+000    0.000000E+000    
! Port Impedance  2.000000E+001    0.000000E+000    2.000000E+001    0.000000E+000    

4.300000E+000    5.834275E-002    6.686636E+001    9.977245E-001    -1.355262E+001   9.977245E-001    -1.355262E+001   5.841157E-002    8.547540E+001    
! Gamma  2.819416E-001    2.535590E+002    0.000000E+000    0.000000E+000    
! Port Impedance  2.000000E+001    0.000000E+000    2.000000E+001    0.000000E+000    

4.400000E+000    5.979550E-002    6.638139E+001    9.976297E-001    -1.386244E+001   9.976297E-001    -1.386244E+001   5.986802E-002    8.534889E+001    
! Gamma  2.887006E-001    2.594978E+002    0.000000E+000    0.000000E+000    
! Port Impedance  2.000000E+001    0.000000E+000    2.000000E+001    0.000000E+000    

4.500000E+000    6.125285E-002    6.589709E+001    9.975325E-001    -1.417204E+001   9.975325E-001    -1.417204E+001   6.132905E-002    8.522170E+001    
! Gamma  2.954864E-001    2.654391E+002    0.000000E+000    0.000000E+000    
! Port Impedance  2.000000E+001    0.000000E+000    2.000000E+001    0.000000E+000    

4.600000E+000    6.271474E-002    6.541348E+001    9.974330E-001    -1.448141E+001   9.974330E-001    -1.448141E+001   6.279456E-002    8.509384E+001    
! Gamma  3.022964E-001    2.713831E+002    0.000000E+000    0.000000E+000    
! Port Impedance  2.000000E+001    0.000000E+000    2.000000E+001    0.000000E+000    

4.700000E+000    6.418107E-002    6.493058E+001    9.973310E-001    -1.479058E+001   9.973310E-001    -1.479058E+001   6.426446E-002    8.496532E+001    
! Gamma  3.091285E-001    2.773297E+002    0.000000E+000    0.000000E+000    
! Port Impedance  2.000000E+001    0.000000E+000    2.000000E+001    0.000000E+000    

4.800000E+000    6.565174E-002    6.444839E+001    9.972267E-001    -1.509954E+001   9.972267E-001    -1.509954E+001   6.573866E-002    8.483614E+001    
! Gamma  3.159807E-001    2.832790E+002    0.000000E+000    0.000000E+000    
! Port Impedance  2.000000E+001    0.000000E+000    2.000000E+001    0.000000E+000    

4.900000E+000    6.712665E-002    6.396693E+001    9.971199E-001    -1.540830E+001   9.971199E-001    -1.540830E+001   6.721705E-002    8.470633E+001    
! Gamma  3.228510E-001    2.892310E+002    0.000000E+000    0.000000E+000    
! Port Impedance  2.000000E+001    0.000000E+000    2.000000E+001    0.000000E+000    

5.000000E+000    6.860569E-002    6.348619E+001    9.970106E-001    -1.571687E+001   9.970106E-001    -1.571687E+001   6.869951E-002    8.457589E+001    
! Gamma  3.297376E-001    2.951856E+002    0.000000E+000    0.000000E+000    
! Port Impedance  2.000000E+001    0.000000E+000    2.000000E+001    0.000000E+000    

5.100000E+000    7.008876E-002    6.300616E+001    9.968989E-001    -1.602526E+001   9.968989E-001    -1.602526E+001   7.018595E-002    8.444483E+001    
! Gamma  3.366389E-001    3.011430E+002    0.000000E+000    0.000000E+000    
! Port Impedance  2.000000E+001    0.000000E+000    2.000000E+001    0.000000E+000    

5.200000E+000    7.157572E-002    6.252686E+001    9.967848E-001    -1.633348E+001   9.967848E-001    -1.633348E+001   7.167623E-002    8.431318E+001    
! Gamma  3.435534E-001    3.071031E+002    0.000000E+000    0.000000E+000    
! Port Impedance  2.000000E+001    0.000000E+000    2.000000E+001    0.000000E+000    

5.300000E+000    7.306646E-002    6.204826E+001    9.966682E-001    -1.664154E+001   9.966682E-001    -1.664154E+001   7.317024E-002    8.418093E+001    
! Gamma  3.504796E-001    3.130659E+002    0.000000E+000    0.000000E+000    
! Port Impedance  2.000000E+001    0.000000E+000    2.000000E+001    0.000000E+000    

5.400000E+000    7.456085E-002    6.157036E+001    9.965491E-001    -1.694944E+001   9.965491E-001    -1.694944E+001   7.466785E-002    8.404811E+001    
! Gamma  3.574162E-001    3.190315E+002    0.000000E+000    0.000000E+000    
! Port Impedance  2.000000E+001    0.000000E+000    2.000000E+001    0.000000E+000    

5.500000E+000    7.605876E-002    6.109314E+001    9.964275E-001    -1.725719E+001   9.964275E-001    -1.725719E+001   7.616895E-002    8.391474E+001    
! Gamma  3.643622E-001    3.249999E+002    0.000000E+000    0.000000E+000    
! Port Impedance  2.000000E+001    0.000000E+000    2.000000E+001    0.000000E+000    

5.600000E+000    7.756005E-002    6.061658E+001    9.963035E-001    -1.756480E+001   9.963035E-001    -1.756480E+001   7.767339E-002    8.378082E+001    
! Gamma  3.713164E-001    3.309710E+002    0.000000E+000    0.000000E+000    
! Port Impedance  2.000000E+001    0.000000E+000    2.000000E+001    0.000000E+000    

5.700000E+000    7.906459E-002    6.014068E+001    9.961770E-001    -1.787229E+001   9.961770E-001    -1.787229E+001   7.918104E-002    8.364637E+001    
! Gamma  3.782779E-001    3.369449E+002    0.000000E+000    0.000000E+000    
! Port Impedance  2.000000E+001    0.000000E+000    2.000000E+001    0.000000E+000    

5.800000E+000    8.057222E-002    5.966540E+001    9.960479E-001    -1.817965E+001   9.960479E-001    -1.817965E+001   8.069177E-002    8.351140E+001    
! Gamma  3.852459E-001    3.429216E+002    0.000000E+000    0.000000E+000    
! Port Impedance  2.000000E+001    0.000000E+000    2.000000E+001    0.000000E+000    

5.900000E+000    8.208281E-002    5.919074E+001    9.959164E-001    -1.848690E+001   9.959164E-001    -1.848690E+001   8.220544E-002    8.337594E+001    
! Gamma  3.922197E-001    3.489012E+002    0.000000E+000    0.000000E+000    
! Port Impedance  2.000000E+001    0.000000E+000    2.000000E+001    0.000000E+000    

6.000000E+000    8.359622E-002    5.871666E+001    9.957823E-001    -1.879405E+001   9.957823E-001    -1.879405E+001   8.372191E-002    8.323998E+001    
! Gamma  3.991984E-001    3.548835E+002    0.000000E+000    0.000000E+000    
! Port Impedance  2.000000E+001    0.000000E+000    2.000000E+001    0.000000E+000    

6.100000E+000    8.511228E-002    5.824315E+001    9.956458E-001    -1.910111E+001   9.956458E-001    -1.910111E+001   8.524105E-002    8.310356E+001    
! Gamma  4.061817E-001    3.608686E+002    0.000000E+000    0.000000E+000    
! Port Impedance  2.000000E+001    0.000000E+000    2.000000E+001    0.000000E+000    

