! Touchstone file from project 
# GHZ S MA R 10.000000
! Modal data exported
! Port[1] = IF_output:1
! Port[2] = RF_input:1
0.000000E+000    0.000000E+000    0.000000E+000    1.000000E+000    0.000000E+000    1.000000E+000    0.000000E+000    0.000000E+000    0.000000E+000    
! Gamma  2.184942E-002    0.000000E+000    0.000000E+000    0.000000E+000    
! Port Impedance  1.000000E+001    0.000000E+000    1.000000E+001    0.000000E+000    

1.000000E-001    3.300158E-003    8.363119E+001    9.999702E-001    -3.305612E-001   9.999702E-001    -3.305612E-001   3.295476E-003    9.486589E+001    
! Gamma  0.000000E+000    4.003283E+000    0.000000E+000    0.000000E+000    
! Port Impedance  1.000000E+001    0.000000E+000    1.000000E+001    0.000000E+000    

2.000000E-001    6.572127E-003    8.619599E+001    9.999344E-001    -6.601859E-001   9.999344E-001    -6.601859E-001   6.566903E-003    9.203086E+001    
! Gamma  0.000000E+000    8.006655E+000    0.000000E+000    0.000000E+000    
! Port Impedance  1.000000E+001    0.000000E+000    1.000000E+001    0.000000E+000    

3.000000E-001    9.847309E-003    8.677988E+001    9.998924E-001    -9.891861E-001   9.998924E-001    -9.891861E-001   9.836389E-003    9.092319E+001    
! Gamma  0.000000E+000    1.201001E+001    0.000000E+000    0.000000E+000    
! Port Impedance  1.000000E+001    0.000000E+000    1.000000E+001    0.000000E+000    

4.000000E-001    1.312023E-002    8.686206E+001    9.998454E-001    -1.317980E+000   9.998454E-001    -1.317980E+000   1.310054E-002    9.026285E+001    
! Gamma  0.000000E+000    1.601336E+001    0.000000E+000    0.000000E+000    
! Port Impedance  1.000000E+001    0.000000E+000    1.000000E+001    0.000000E+000    

5.000000E-001    1.638927E-002    8.673977E+001    9.997914E-001    -1.646733E+000   9.997914E-001    -1.646733E+000   1.635983E-002    8.978888E+001    
! Gamma  0.000000E+000    2.001671E+001    0.000000E+000    0.000000E+000    
! Port Impedance  1.000000E+001    0.000000E+000    1.000000E+001    0.000000E+000    

6.000000E-001    1.965372E-002    8.651210E+001    9.997289E-001    -1.975488E+000   9.997289E-001    -1.975488E+000   1.961545E-002    8.941095E+001    
! Gamma  0.000000E+000    2.402007E+001    0.000000E+000    0.000000E+000    
! Port Impedance  1.000000E+001    0.000000E+000    1.000000E+001    0.000000E+000    

7.000000E-001    2.291335E-002    8.622169E+001    9.996570E-001    -2.304249E+000   9.996570E-001    -2.304249E+000   2.286845E-002    8.908844E+001    
! Gamma  0.000000E+000    2.802343E+001    0.000000E+000    0.000000E+000    
! Port Impedance  1.000000E+001    0.000000E+000    1.000000E+001    0.000000E+000    

8.000000E-001    2.616820E-002    8.589014E+001    9.995753E-001    -2.633009E+000   9.995753E-001    -2.633009E+000   2.611960E-002    8.880026E+001    
! Gamma  0.000000E+000    3.202679E+001    0.000000E+000    0.000000E+000    
! Port Impedance  1.000000E+001    0.000000E+000    1.000000E+001    0.000000E+000    

9.000000E-001    2.941851E-002    8.552977E+001    9.994835E-001    -2.961757E+000   9.994835E-001    -2.961757E+000   2.936934E-002    8.853440E+001    
! Gamma  0.000000E+000    3.603016E+001    0.000000E+000    0.000000E+000    
! Port Impedance  1.000000E+001    0.000000E+000    1.000000E+001    0.000000E+000    

1.000000E+000    3.266463E-002    8.514825E+001    9.993814E-001    -3.290487E+000   9.993814E-001    -3.290487E+000   3.261793E-002    8.828364E+001    
! Gamma  0.000000E+000    4.003353E+001    0.000000E+000    0.000000E+000    
! Port Impedance  1.000000E+001    0.000000E+000    1.000000E+001    0.000000E+000    

1.100000E+000    3.590693E-002    8.475074E+001    9.992688E-001    -3.619190E+000   9.992688E-001    -3.619190E+000   3.586547E-002    8.804343E+001    
! Gamma  0.000000E+000    4.403691E+001    0.000000E+000    0.000000E+000    
! Port Impedance  1.000000E+001    0.000000E+000    1.000000E+001    0.000000E+000    

1.200000E+000    3.914581E-002    8.434089E+001    9.991459E-001    -3.947858E+000   9.991459E-001    -3.947858E+000   3.911195E-002    8.781082E+001    
! Gamma  0.000000E+000    4.804030E+001    0.000000E+000    0.000000E+000    
! Port Impedance  1.000000E+001    0.000000E+000    1.000000E+001    0.000000E+000    

1.300000E+000    4.238164E-002    8.392137E+001    9.990124E-001    -4.276486E+000   9.990124E-001    -4.276486E+000   4.235734E-002    8.758382E+001    
! Gamma  0.000000E+000    5.204370E+001    0.000000E+000    0.000000E+000    
! Port Impedance  1.000000E+001    0.000000E+000    1.000000E+001    0.000000E+000    

1.400000E+000    4.561473E-002    8.349420E+001    9.988684E-001    -4.605068E+000   9.988684E-001    -4.605068E+000   4.560156E-002    8.736105E+001    
! Gamma  0.000000E+000    5.604711E+001    0.000000E+000    0.000000E+000    
! Port Impedance  1.000000E+001    0.000000E+000    1.000000E+001    0.000000E+000    

1.500000E+000    4.884535E-002    8.306095E+001    9.987140E-001    -4.933598E+000   9.987140E-001    -4.933598E+000   4.884450E-002    8.714154E+001    
! Gamma  0.000000E+000    6.005052E+001    0.000000E+000    0.000000E+000    
! Port Impedance  1.000000E+001    0.000000E+000    1.000000E+001    0.000000E+000    

1.600000E+000    5.207372E-002    8.262284E+001    9.985490E-001    -5.262072E+000   9.985490E-001    -5.262072E+000   5.208606E-002    8.692461E+001    
! Gamma  0.000000E+000    6.405395E+001    0.000000E+000    0.000000E+000    
! Port Impedance  1.000000E+001    0.000000E+000    1.000000E+001    0.000000E+000    

1.700000E+000    5.530002E-002    8.218084E+001    9.983735E-001    -5.590483E+000   9.983735E-001    -5.590483E+000   5.532613E-002    8.670973E+001    
! Gamma  0.000000E+000    6.805739E+001    0.000000E+000    0.000000E+000    
! Port Impedance  1.000000E+001    0.000000E+000    1.000000E+001    0.000000E+000    

1.800000E+000    5.852436E-002    8.173573E+001    9.981876E-001    -5.918828E+000   9.981876E-001    -5.918828E+000   5.856459E-002    8.649653E+001    
! Gamma  0.000000E+000    7.206084E+001    0.000000E+000    0.000000E+000    
! Port Impedance  1.000000E+001    0.000000E+000    1.000000E+001    0.000000E+000    

1.900000E+000    6.174683E-002    8.128812E+001    9.979912E-001    -6.247102E+000   9.979912E-001    -6.247102E+000   6.180133E-002    8.628471E+001    
! Gamma  0.000000E+000    7.606430E+001    0.000000E+000    0.000000E+000    
! Port Impedance  1.000000E+001    0.000000E+000    1.000000E+001    0.000000E+000    

2.000000E+000    6.496750E-002    8.083852E+001    9.977843E-001    -6.575300E+000   9.977843E-001    -6.575300E+000   6.503622E-002    8.607404E+001    
! Gamma  0.000000E+000    8.006777E+001    0.000000E+000    0.000000E+000    
! Port Impedance  1.000000E+001    0.000000E+000    1.000000E+001    0.000000E+000    

2.100000E+000    6.818637E-002    8.038733E+001    9.975669E-001    -6.903418E+000   9.975669E-001    -6.903418E+000   6.826915E-002    8.586436E+001    
! Gamma  0.000000E+000    8.407126E+001    0.000000E+000    0.000000E+000    
! Port Impedance  1.000000E+001    0.000000E+000    1.000000E+001    0.000000E+000    

2.200000E+000    7.140344E-002    7.993489E+001    9.973392E-001    -7.231451E+000   9.973392E-001    -7.231451E+000   7.150001E-002    8.565553E+001    
! Gamma  0.000000E+000    8.807476E+001    0.000000E+000    0.000000E+000    
! Port Impedance  1.000000E+001    0.000000E+000    1.000000E+001    0.000000E+000    

2.300000E+000    7.461870E-002    7.948146E+001    9.971010E-001    -7.559395E+000   9.971010E-001    -7.559395E+000   7.472868E-002    8.544743E+001    
! Gamma  0.000000E+000    9.207828E+001    0.000000E+000    0.000000E+000    
! Port Impedance  1.000000E+001    0.000000E+000    1.000000E+001    0.000000E+000    

2.400000E+000    7.783210E-002    7.902727E+001    9.968524E-001    -7.887247E+000   9.968524E-001    -7.887247E+000   7.795506E-002    8.523997E+001    
! Gamma  0.000000E+000    9.608182E+001    0.000000E+000    0.000000E+000    
! Port Impedance  1.000000E+001    0.000000E+000    1.000000E+001    0.000000E+000    

2.500000E+000    8.104359E-002    7.857249E+001    9.965935E-001    -8.215001E+000   9.965935E-001    -8.215001E+000   8.117904E-002    8.503309E+001    
! Gamma  0.000000E+000    1.000854E+002    0.000000E+000    0.000000E+000    
! Port Impedance  1.000000E+001    0.000000E+000    1.000000E+001    0.000000E+000    

2.600000E+000    8.425311E-002    7.811729E+001    9.963243E-001    -8.542654E+000   9.963243E-001    -8.542654E+000   8.440049E-002    8.482673E+001    
! Gamma  0.000000E+000    1.040889E+002    0.000000E+000    0.000000E+000    
! Port Impedance  1.000000E+001    0.000000E+000    1.000000E+001    0.000000E+000    

2.700000E+000    8.746058E-002    7.766178E+001    9.960447E-001    -8.870201E+000   9.960447E-001    -8.870201E+000   8.761933E-002    8.462083E+001    
! Gamma  0.000000E+000    1.080925E+002    0.000000E+000    0.000000E+000    
! Port Impedance  1.000000E+001    0.000000E+000    1.000000E+001    0.000000E+000    

2.800000E+000    9.066591E-002    7.720607E+001    9.957549E-001    -9.197639E+000   9.957549E-001    -9.197639E+000   9.083543E-002    8.441536E+001    
! Gamma  0.000000E+000    1.120961E+002    0.000000E+000    0.000000E+000    
! Port Impedance  1.000000E+001    0.000000E+000    1.000000E+001    0.000000E+000    

2.900000E+000    9.386903E-002    7.675024E+001    9.954548E-001    -9.524963E+000   9.954548E-001    -9.524963E+000   9.404870E-002    8.421028E+001    
! Gamma  0.000000E+000    1.160998E+002    0.000000E+000    0.000000E+000    
! Port Impedance  1.000000E+001    0.000000E+000    1.000000E+001    0.000000E+000    

3.000000E+000    9.706983E-002    7.629436E+001    9.951445E-001    -9.852169E+000   9.951445E-001    -9.852169E+000   9.725903E-002    8.400557E+001    
! Gamma  0.000000E+000    1.201034E+002    0.000000E+000    0.000000E+000    
! Port Impedance  1.000000E+001    0.000000E+000    1.000000E+001    0.000000E+000    

3.100000E+000    1.002682E-001    7.583850E+001    9.948240E-001    -1.017925E+001   9.948240E-001    -1.017925E+001   1.004663E-001    8.380120E+001    
! Gamma  0.000000E+000    1.241071E+002    0.000000E+000    0.000000E+000    
! Port Impedance  1.000000E+001    0.000000E+000    1.000000E+001    0.000000E+000    

3.200000E+000    1.034641E-001    7.538270E+001    9.944933E-001    -1.050621E+001   9.944933E-001    -1.050621E+001   1.036705E-001    8.359716E+001    
! Gamma  0.000000E+000    1.281107E+002    0.000000E+000    0.000000E+000    
! Port Impedance  1.000000E+001    0.000000E+000    1.000000E+001    0.000000E+000    

3.300000E+000    1.066573E-001    7.492700E+001    9.941525E-001    -1.083304E+001   9.941525E-001    -1.083304E+001   1.068714E-001    8.339342E+001    
! Gamma  0.000000E+000    1.321144E+002    0.000000E+000    0.000000E+000    
! Port Impedance  1.000000E+001    0.000000E+000    1.000000E+001    0.000000E+000    

3.400000E+000    1.098479E-001    7.447144E+001    9.938016E-001    -1.115974E+001   9.938016E-001    -1.115974E+001   1.100689E-001    8.318997E+001    
! Gamma  0.000000E+000    1.361182E+002    0.000000E+000    0.000000E+000    
! Port Impedance  1.000000E+001    0.000000E+000    1.000000E+001    0.000000E+000    

3.500000E+000    1.130356E-001    7.401606E+001    9.934407E-001    -1.148630E+001   9.934407E-001    -1.148630E+001   1.132630E-001    8.298681E+001    
! Gamma  0.000000E+000    1.401219E+002    0.000000E+000    0.000000E+000    
! Port Impedance  1.000000E+001    0.000000E+000    1.000000E+001    0.000000E+000    

3.600000E+000    1.162203E-001    7.356087E+001    9.930697E-001    -1.181271E+001   9.930697E-001    -1.181271E+001   1.164536E-001    8.278392E+001    
! Gamma  0.000000E+000    1.441257E+002    0.000000E+000    0.000000E+000    
! Port Impedance  1.000000E+001    0.000000E+000    1.000000E+001    0.000000E+000    

3.700000E+000    1.194020E-001    7.310589E+001    9.926887E-001    -1.213898E+001   9.926887E-001    -1.213898E+001   1.196405E-001    8.258129E+001    
! Gamma  0.000000E+000    1.481295E+002    0.000000E+000    0.000000E+000    
! Port Impedance  1.000000E+001    0.000000E+000    1.000000E+001    0.000000E+000    

3.800000E+000    1.225805E-001    7.265114E+001    9.922978E-001    -1.246511E+001   9.922978E-001    -1.246511E+001   1.228236E-001    8.237892E+001    
! Gamma  0.000000E+000    1.521333E+002    0.000000E+000    0.000000E+000    
! Port Impedance  1.000000E+001    0.000000E+000    1.000000E+001    0.000000E+000    

3.900000E+000    1.257558E-001    7.219665E+001    9.918969E-001    -1.279108E+001   9.918969E-001    -1.279108E+001   1.260030E-001    8.217680E+001    
! Gamma  0.000000E+000    1.561372E+002    0.000000E+000    0.000000E+000    
! Port Impedance  1.000000E+001    0.000000E+000    1.000000E+001    0.000000E+000    

4.000000E+000    1.289277E-001    7.174241E+001    9.914862E-001    -1.311689E+001   9.914862E-001    -1.311689E+001   1.291784E-001    8.197492E+001    
! Gamma  0.000000E+000    1.601411E+002    0.000000E+000    0.000000E+000    
! Port Impedance  1.000000E+001    0.000000E+000    1.000000E+001    0.000000E+000    

4.100000E+000    1.320960E-001    7.128844E+001    9.910656E-001    -1.344254E+001   9.910656E-001    -1.344254E+001   1.323497E-001    8.177329E+001    
! Gamma  0.000000E+000    1.641450E+002    0.000000E+000    0.000000E+000    
! Port Impedance  1.000000E+001    0.000000E+000    1.000000E+001    0.000000E+000    

4.200000E+000    1.352608E-001    7.083475E+001    9.906353E-001    -1.376803E+001   9.906353E-001    -1.376803E+001   1.355170E-001    8.157189E+001    
! Gamma  0.000000E+000    1.681489E+002    0.000000E+000    0.000000E+000    
! Port Impedance  1.000000E+001    0.000000E+000    1.000000E+001    0.000000E+000    

4.300000E+000    1.384218E-001    7.038134E+001    9.901952E-001    -1.409335E+001   9.901952E-001    -1.409335E+001   1.386800E-001    8.137074E+001    
! Gamma  0.000000E+000    1.721528E+002    0.000000E+000    0.000000E+000    
! Port Impedance  1.000000E+001    0.000000E+000    1.000000E+001    0.000000E+000    

4.400000E+000    1.415790E-001    6.992823E+001    9.897453E-001    -1.441850E+001   9.897453E-001    -1.441850E+001   1.418387E-001    8.116981E+001    
! Gamma  0.000000E+000    1.761568E+002    0.000000E+000    0.000000E+000    
! Port Impedance  1.000000E+001    0.000000E+000    1.000000E+001    0.000000E+000    

4.500000E+000    1.447323E-001    6.947541E+001    9.892858E-001    -1.474347E+001   9.892858E-001    -1.474347E+001   1.449931E-001    8.096912E+001    
! Gamma  0.000000E+000    1.801608E+002    0.000000E+000    0.000000E+000    
! Port Impedance  1.000000E+001    0.000000E+000    1.000000E+001    0.000000E+000    

4.600000E+000    1.478815E-001    6.902289E+001    9.888166E-001    -1.506827E+001   9.888166E-001    -1.506827E+001   1.481429E-001    8.076866E+001    
! Gamma  0.000000E+000    1.841649E+002    0.000000E+000    0.000000E+000    
! Port Impedance  1.000000E+001    0.000000E+000    1.000000E+001    0.000000E+000    

4.700000E+000    1.510265E-001    6.857068E+001    9.883379E-001    -1.539288E+001   9.883379E-001    -1.539288E+001   1.512881E-001    8.056844E+001    
! Gamma  0.000000E+000    1.881690E+002    0.000000E+000    0.000000E+000    
! Port Impedance  1.000000E+001    0.000000E+000    1.000000E+001    0.000000E+000    

4.800000E+000    1.541673E-001    6.811877E+001    9.878497E-001    -1.571731E+001   9.878497E-001    -1.571731E+001   1.544287E-001    8.036844E+001    
! Gamma  0.000000E+000    1.921731E+002    0.000000E+000    0.000000E+000    
! Port Impedance  1.000000E+001    0.000000E+000    1.000000E+001    0.000000E+000    

4.900000E+000    1.573036E-001    6.766717E+001    9.873519E-001    -1.604155E+001   9.873519E-001    -1.604155E+001   1.575645E-001    8.016868E+001    
! Gamma  0.000000E+000    1.961772E+002    0.000000E+000    0.000000E+000    
! Port Impedance  1.000000E+001    0.000000E+000    1.000000E+001    0.000000E+000    

5.000000E+000    1.604356E-001    6.721589E+001    9.868447E-001    -1.636559E+001   9.868447E-001    -1.636559E+001   1.606955E-001    7.996915E+001    
! Gamma  0.000000E+000    2.001814E+002    0.000000E+000    0.000000E+000    
! Port Impedance  1.000000E+001    0.000000E+000    1.000000E+001    0.000000E+000    

5.100000E+000    1.635629E-001    6.676491E+001    9.863281E-001    -1.668944E+001   9.863281E-001    -1.668944E+001   1.638215E-001    7.976985E+001    
! Gamma  0.000000E+000    2.041856E+002    0.000000E+000    0.000000E+000    
! Port Impedance  1.000000E+001    0.000000E+000    1.000000E+001    0.000000E+000    

5.200000E+000    1.666855E-001    6.631425E+001    9.858021E-001    -1.701308E+001   9.858021E-001    -1.701308E+001   1.669425E-001    7.957078E+001    
! Gamma  0.000000E+000    2.081898E+002    0.000000E+000    0.000000E+000    
! Port Impedance  1.000000E+001    0.000000E+000    1.000000E+001    0.000000E+000    

5.300000E+000    1.698033E-001    6.586391E+001    9.852669E-001    -1.733652E+001   9.852669E-001    -1.733652E+001   1.700584E-001    7.937195E+001    
! Gamma  0.000000E+000    2.121941E+002    0.000000E+000    0.000000E+000    
! Port Impedance  1.000000E+001    0.000000E+000    1.000000E+001    0.000000E+000    

5.400000E+000    1.729162E-001    6.541388E+001    9.847223E-001    -1.765976E+001   9.847223E-001    -1.765976E+001   1.731691E-001    7.917335E+001    
! Gamma  0.000000E+000    2.161984E+002    0.000000E+000    0.000000E+000    
! Port Impedance  1.000000E+001    0.000000E+000    1.000000E+001    0.000000E+000    

5.500000E+000    1.760241E-001    6.496416E+001    9.841686E-001    -1.798278E+001   9.841686E-001    -1.798278E+001   1.762745E-001    7.897498E+001    
! Gamma  0.000000E+000    2.202027E+002    0.000000E+000    0.000000E+000    
! Port Impedance  1.000000E+001    0.000000E+000    1.000000E+001    0.000000E+000    

5.600000E+000    1.791269E-001    6.451477E+001    9.836058E-001    -1.830560E+001   9.836058E-001    -1.830560E+001   1.793745E-001    7.877686E+001    
! Gamma  0.000000E+000    2.242071E+002    0.000000E+000    0.000000E+000    
! Port Impedance  1.000000E+001    0.000000E+000    1.000000E+001    0.000000E+000    

5.700000E+000    1.822245E-001    6.406569E+001    9.830338E-001    -1.862819E+001   9.830338E-001    -1.862819E+001   1.824691E-001    7.857897E+001    
! Gamma  0.000000E+000    2.282115E+002    0.000000E+000    0.000000E+000    
! Port Impedance  1.000000E+001    0.000000E+000    1.000000E+001    0.000000E+000    

5.800000E+000    1.853169E-001    6.361692E+001    9.824528E-001    -1.895056E+001   9.824528E-001    -1.895056E+001   1.855582E-001    7.838133E+001    
! Gamma  0.000000E+000    2.322159E+002    0.000000E+000    0.000000E+000    
! Port Impedance  1.000000E+001    0.000000E+000    1.000000E+001    0.000000E+000    

5.900000E+000    1.884038E-001    6.316848E+001    9.818628E-001    -1.927271E+001   9.818628E-001    -1.927271E+001   1.886416E-001    7.818392E+001    
! Gamma  0.000000E+000    2.362204E+002    0.000000E+000    0.000000E+000    
! Port Impedance  1.000000E+001    0.000000E+000    1.000000E+001    0.000000E+000    

6.000000E+000    1.914852E-001    6.272035E+001    9.812638E-001    -1.959463E+001   9.812638E-001    -1.959463E+001   1.917194E-001    7.798676E+001    
! Gamma  0.000000E+000    2.402249E+002    0.000000E+000    0.000000E+000    
! Port Impedance  1.000000E+001    0.000000E+000    1.000000E+001    0.000000E+000    

6.100000E+000    1.945610E-001    6.227254E+001    9.806560E-001    -1.991632E+001   9.806560E-001    -1.991632E+001   1.947914E-001    7.778985E+001    
! Gamma  0.000000E+000    2.442294E+002    0.000000E+000    0.000000E+000    
! Port Impedance  1.000000E+001    0.000000E+000    1.000000E+001    0.000000E+000    

