! Touchstone file from project 
# GHZ S MA R 30.000000
! Modal data exported
! Port[1] = IF_output:1
! Port[2] = RF_input:1
0.000000E+000    0.000000E+000    0.000000E+000    1.000000E+000    0.000000E+000    1.000000E+000    0.000000E+000    0.000000E+000    0.000000E+000    
! Gamma  1.695911E-001    0.000000E+000    0.000000E+000    0.000000E+000    
! Port Impedance  3.000000E+001    0.000000E+000    3.000000E+001    0.000000E+000    

1.000000E-001    1.152736E-003    7.094489E+001    9.999127E-001    -3.106712E-001   9.999127E-001    -3.106712E-001   1.111779E-003    1.005552E+002    
! Gamma  6.231010E-003    5.681217E+000    0.000000E+000    0.000000E+000    
! Port Impedance  3.000000E+001    0.000000E+000    3.000000E+001    0.000000E+000    

2.000000E-001    2.158810E-003    8.136983E+001    9.997632E-001    -6.125882E-001   9.997632E-001    -6.125882E-001   2.249754E-003    9.066489E+001    
! Gamma  6.546260E-003    1.136628E+001    0.000000E+000    0.000000E+000    
! Port Impedance  3.000000E+001    0.000000E+000    3.000000E+001    0.000000E+000    

3.000000E-001    3.128465E-003    8.479870E+001    9.996683E-001    -9.107701E-001   9.996683E-001    -9.107701E-001   3.514439E-003    8.661978E+001    
! Gamma  7.074391E-003    1.705059E+001    0.000000E+000    0.000000E+000    
! Port Impedance  3.000000E+001    0.000000E+000    3.000000E+001    0.000000E+000    

4.000000E-001    4.055022E-003    8.585229E+001    9.996127E-001    -1.208444E+000   9.996127E-001    -1.208444E+000   4.890897E-003    8.482396E+001    
! Gamma  7.813516E-003    2.273485E+001    0.000000E+000    0.000000E+000    
! Port Impedance  3.000000E+001    0.000000E+000    3.000000E+001    0.000000E+000    

5.000000E-001    4.961704E-003    8.569655E+001    9.995768E-001    -1.506362E+000   9.995768E-001    -1.506362E+000   6.347231E-003    8.423821E+001    
! Gamma  8.762807E-003    2.841922E+001    0.000000E+000    0.000000E+000    
! Port Impedance  3.000000E+001    0.000000E+000    3.000000E+001    0.000000E+000    

6.000000E-001    5.875573E-003    8.490859E+001    9.995506E-001    -1.804604E+000   9.995506E-001    -1.804604E+000   7.849555E-003    8.432597E+001    
! Gamma  9.921384E-003    3.410381E+001    0.000000E+000    0.000000E+000    
! Port Impedance  3.000000E+001    0.000000E+000    3.000000E+001    0.000000E+000    

7.000000E-001    6.816417E-003    8.384977E+001    9.995290E-001    -2.103119E+000   9.995290E-001    -2.103119E+000   9.370457E-003    8.477426E+001    
! Gamma  1.128821E-002    3.978867E+001    0.000000E+000    0.000000E+000    
! Port Impedance  3.000000E+001    0.000000E+000    3.000000E+001    0.000000E+000    

8.000000E-001    7.794120E-003    8.274045E+001    9.995096E-001    -2.401846E+000   9.995096E-001    -2.401846E+000   1.089047E-002    8.539983E+001    
! Gamma  1.286209E-002    4.547387E+001    0.000000E+000    0.000000E+000    
! Port Impedance  3.000000E+001    0.000000E+000    3.000000E+001    0.000000E+000    

9.000000E-001    8.810563E-003    8.169815E+001    9.994910E-001    -2.700735E+000   9.994910E-001    -2.700735E+000   1.239671E-002    8.609678E+001    
! Gamma  1.464162E-002    5.115946E+001    0.000000E+000    0.000000E+000    
! Port Impedance  3.000000E+001    0.000000E+000    3.000000E+001    0.000000E+000    

1.000000E+000    9.862753E-003    8.077224E+001    9.994725E-001    -2.999749E+000   9.994725E-001    -2.999749E+000   1.388102E-002    8.680472E+001    
! Gamma  1.662527E-002    5.684549E+001    0.000000E+000    0.000000E+000    
! Port Impedance  3.000000E+001    0.000000E+000    3.000000E+001    0.000000E+000    

1.100000E+000    1.094546E-002    7.997260E+001    9.994537E-001    -3.298863E+000   9.994537E-001    -3.298863E+000   1.533845E-002    8.748973E+001    
! Gamma  1.881132E-002    6.253202E+001    0.000000E+000    0.000000E+000    
! Port Impedance  3.000000E+001    0.000000E+000    3.000000E+001    0.000000E+000    

1.200000E+000    1.205293E-002    7.928943E+001    9.994341E-001    -3.598056E+000   9.994341E-001    -3.598056E+000   1.676617E-002    8.813327E+001    
! Gamma  2.119785E-002    6.821909E+001    0.000000E+000    0.000000E+000    
! Port Impedance  3.000000E+001    0.000000E+000    3.000000E+001    0.000000E+000    

1.300000E+000    1.317977E-002    7.870526E+001    9.994136E-001    -3.897316E+000   9.994136E-001    -3.897316E+000   1.816278E-002    8.872570E+001    
! Gamma  2.378284E-002    7.390675E+001    0.000000E+000    0.000000E+000    
! Port Impedance  3.000000E+001    0.000000E+000    3.000000E+001    0.000000E+000    

1.400000E+000    1.432134E-002    7.820117E+001    9.993922E-001    -4.196631E+000   9.993922E-001    -4.196631E+000   1.952783E-002    8.926259E+001    
! Gamma  2.656407E-002    7.959505E+001    0.000000E+000    0.000000E+000    
! Port Impedance  3.000000E+001    0.000000E+000    3.000000E+001    0.000000E+000    

1.500000E+000    1.547384E-002    7.775979E+001    9.993696E-001    -4.495994E+000   9.993696E-001    -4.495994E+000   2.086153E-002    8.974253E+001    
! Gamma  2.953916E-002    8.528404E+001    0.000000E+000    0.000000E+000    
! Port Impedance  3.000000E+001    0.000000E+000    3.000000E+001    0.000000E+000    

1.600000E+000    1.663424E-002    7.736635E+001    9.993458E-001    -4.795400E+000   9.993458E-001    -4.795400E+000   2.216458E-002    9.016594E+001    
! Gamma  3.270562E-002    9.097377E+001    0.000000E+000    0.000000E+000    
! Port Impedance  3.000000E+001    0.000000E+000    3.000000E+001    0.000000E+000    

1.700000E+000    1.780017E-002    7.700880E+001    9.993207E-001    -5.094846E+000   9.993207E-001    -5.094846E+000   2.343798E-002    9.053427E+001    
! Gamma  3.606077E-002    9.666428E+001    0.000000E+000    0.000000E+000    
! Port Impedance  3.000000E+001    0.000000E+000    3.000000E+001    0.000000E+000    

1.800000E+000    1.896983E-002    7.667755E+001    9.992944E-001    -5.394327E+000   9.992944E-001    -5.394327E+000   2.468299E-002    9.084956E+001    
! Gamma  3.960184E-002    1.023556E+002    0.000000E+000    0.000000E+000    
! Port Impedance  3.000000E+001    0.000000E+000    3.000000E+001    0.000000E+000    

1.900000E+000    2.014183E-002    7.636517E+001    9.992668E-001    -5.693842E+000   9.992668E-001    -5.693842E+000   2.590103E-002    9.111421E+001    
! Gamma  4.332590E-002    1.080478E+002    0.000000E+000    0.000000E+000    
! Port Impedance  3.000000E+001    0.000000E+000    3.000000E+001    0.000000E+000    

2.000000E+000    2.131512E-002    7.606588E+001    9.992378E-001    -5.993389E+000   9.992378E-001    -5.993389E+000   2.709363E-002    9.133077E+001    
! Gamma  4.722988E-002    1.137410E+002    0.000000E+000    0.000000E+000    
! Port Impedance  3.000000E+001    0.000000E+000    3.000000E+001    0.000000E+000    

2.100000E+000    2.248892E-002    7.577529E+001    9.992075E-001    -6.292967E+000   9.992075E-001    -6.292967E+000   2.826241E-002    9.150191E+001    
! Gamma  5.131063E-002    1.194350E+002    0.000000E+000    0.000000E+000    
! Port Impedance  3.000000E+001    0.000000E+000    3.000000E+001    0.000000E+000    

2.200000E+000    2.366266E-002    7.549005E+001    9.991758E-001    -6.592576E+000   9.991758E-001    -6.592576E+000   2.940901E-002    9.163025E+001    
! Gamma  5.556486E-002    1.251301E+002    0.000000E+000    0.000000E+000    
! Port Impedance  3.000000E+001    0.000000E+000    3.000000E+001    0.000000E+000    

2.300000E+000    2.483591E-002    7.520765E+001    9.991428E-001    -6.892215E+000   9.991428E-001    -6.892215E+000   3.053508E-002    9.171845E+001    
! Gamma  5.998918E-002    1.308263E+002    0.000000E+000    0.000000E+000    
! Port Impedance  3.000000E+001    0.000000E+000    3.000000E+001    0.000000E+000    

2.400000E+000    2.600834E-002    7.492620E+001    9.991083E-001    -7.191884E+000   9.991083E-001    -7.191884E+000   3.164227E-002    9.176905E+001    
! Gamma  6.458010E-002    1.365235E+002    0.000000E+000    0.000000E+000    
! Port Impedance  3.000000E+001    0.000000E+000    3.000000E+001    0.000000E+000    

2.500000E+000    2.717975E-002    7.464430E+001    9.990725E-001    -7.491583E+000   9.990725E-001    -7.491583E+000   3.273220E-002    9.178456E+001    
! Gamma  6.933405E-002    1.422219E+002    0.000000E+000    0.000000E+000    
! Port Impedance  3.000000E+001    0.000000E+000    3.000000E+001    0.000000E+000    

2.600000E+000    2.834996E-002    7.436092E+001    9.990353E-001    -7.791311E+000   9.990353E-001    -7.791311E+000   3.380643E-002    9.176739E+001    
! Gamma  7.424734E-002    1.479214E+002    0.000000E+000    0.000000E+000    
! Port Impedance  3.000000E+001    0.000000E+000    3.000000E+001    0.000000E+000    

2.700000E+000    2.951887E-002    7.407532E+001    9.989967E-001    -8.091070E+000   9.989967E-001    -8.091070E+000   3.486650E-002    9.171986E+001    
! Gamma  7.931624E-002    1.536222E+002    0.000000E+000    0.000000E+000    
! Port Impedance  3.000000E+001    0.000000E+000    3.000000E+001    0.000000E+000    

2.800000E+000    3.068641E-002    7.378697E+001    9.989567E-001    -8.390860E+000   9.989567E-001    -8.390860E+000   3.591385E-002    9.164419E+001    
! Gamma  8.453693E-002    1.593242E+002    0.000000E+000    0.000000E+000    
! Port Impedance  3.000000E+001    0.000000E+000    3.000000E+001    0.000000E+000    

2.900000E+000    3.185254E-002    7.349551E+001    9.989153E-001    -8.690680E+000   9.989153E-001    -8.690680E+000   3.694988E-002    9.154250E+001    
! Gamma  8.990553E-002    1.650275E+002    0.000000E+000    0.000000E+000    
! Port Impedance  3.000000E+001    0.000000E+000    3.000000E+001    0.000000E+000    

3.000000E+000    3.301724E-002    7.320071E+001    9.988725E-001    -8.990532E+000   9.988725E-001    -8.990532E+000   3.797591E-002    9.141683E+001    
! Gamma  9.541809E-002    1.707321E+002    0.000000E+000    0.000000E+000    
! Port Impedance  3.000000E+001    0.000000E+000    3.000000E+001    0.000000E+000    

3.100000E+000    3.418049E-002    7.290242E+001    9.988283E-001    -9.290416E+000   9.988283E-001    -9.290416E+000   3.899319E-002    9.126908E+001    
! Gamma  1.010706E-001    1.764381E+002    0.000000E+000    0.000000E+000    
! Port Impedance  3.000000E+001    0.000000E+000    3.000000E+001    0.000000E+000    

3.200000E+000    3.534231E-002    7.260058E+001    9.987827E-001    -9.590333E+000   9.987827E-001    -9.590333E+000   4.000288E-002    9.110108E+001    
! Gamma  1.068591E-001    1.821455E+002    0.000000E+000    0.000000E+000    
! Port Impedance  3.000000E+001    0.000000E+000    3.000000E+001    0.000000E+000    

3.300000E+000    3.650270E-002    7.229518E+001    9.987357E-001    -9.890283E+000   9.987357E-001    -9.890283E+000   4.100608E-002    9.091455E+001    
! Gamma  1.127795E-001    1.878543E+002    0.000000E+000    0.000000E+000    
! Port Impedance  3.000000E+001    0.000000E+000    3.000000E+001    0.000000E+000    

3.400000E+000    3.766168E-002    7.198623E+001    9.986873E-001    -1.019027E+001   9.986873E-001    -1.019027E+001   4.200382E-002    9.071111E+001    
! Gamma  1.188276E-001    1.935646E+002    0.000000E+000    0.000000E+000    
! Port Impedance  3.000000E+001    0.000000E+000    3.000000E+001    0.000000E+000    

3.500000E+000    3.881927E-002    7.167379E+001    9.986375E-001    -1.049029E+001   9.986375E-001    -1.049029E+001   4.299703E-002    9.049229E+001    
! Gamma  1.249994E-001    1.992763E+002    0.000000E+000    0.000000E+000    
! Port Impedance  3.000000E+001    0.000000E+000    3.000000E+001    0.000000E+000    

3.600000E+000    3.997549E-002    7.135794E+001    9.985863E-001    -1.079034E+001   9.985863E-001    -1.079034E+001   4.398662E-002    9.025952E+001    
! Gamma  1.312907E-001    2.049897E+002    0.000000E+000    0.000000E+000    
! Port Impedance  3.000000E+001    0.000000E+000    3.000000E+001    0.000000E+000    

3.700000E+000    4.113037E-002    7.103877E+001    9.985337E-001    -1.109043E+001   9.985337E-001    -1.109043E+001   4.497337E-002    9.001415E+001    
! Gamma  1.376973E-001    2.107045E+002    0.000000E+000    0.000000E+000    
! Port Impedance  3.000000E+001    0.000000E+000    3.000000E+001    0.000000E+000    

3.800000E+000    4.228394E-002    7.071637E+001    9.984797E-001    -1.139056E+001   9.984797E-001    -1.139056E+001   4.595804E-002    8.975745E+001    
! Gamma  1.442152E-001    2.164210E+002    0.000000E+000    0.000000E+000    
! Port Impedance  3.000000E+001    0.000000E+000    3.000000E+001    0.000000E+000    

3.900000E+000    4.343621E-002    7.039085E+001    9.984244E-001    -1.169072E+001   9.984244E-001    -1.169072E+001   4.694132E-002    8.949058E+001    
! Gamma  1.508402E-001    2.221391E+002    0.000000E+000    0.000000E+000    
! Port Impedance  3.000000E+001    0.000000E+000    3.000000E+001    0.000000E+000    

4.000000E+000    4.458722E-002    7.006232E+001    9.983676E-001    -1.199092E+001   9.983676E-001    -1.199092E+001   4.792383E-002    8.921465E+001    
! Gamma  1.575681E-001    2.278589E+002    0.000000E+000    0.000000E+000    
! Port Impedance  3.000000E+001    0.000000E+000    3.000000E+001    0.000000E+000    

4.100000E+000    4.573698E-002    6.973088E+001    9.983095E-001    -1.229117E+001   9.983095E-001    -1.229117E+001   4.890613E-002    8.893068E+001    
! Gamma  1.643948E-001    2.335804E+002    0.000000E+000    0.000000E+000    
! Port Impedance  3.000000E+001    0.000000E+000    3.000000E+001    0.000000E+000    

4.200000E+000    4.688551E-002    6.939666E+001    9.982500E-001    -1.259145E+001   9.982500E-001    -1.259145E+001   4.988875E-002    8.863963E+001    
! Gamma  1.713162E-001    2.393035E+002    0.000000E+000    0.000000E+000    
! Port Impedance  3.000000E+001    0.000000E+000    3.000000E+001    0.000000E+000    

4.300000E+000    4.803284E-002    6.905975E+001    9.981891E-001    -1.289177E+001   9.981891E-001    -1.289177E+001   5.087214E-002    8.834237E+001    
! Gamma  1.783283E-001    2.450284E+002    0.000000E+000    0.000000E+000    
! Port Impedance  3.000000E+001    0.000000E+000    3.000000E+001    0.000000E+000    

4.400000E+000    4.917899E-002    6.872026E+001    9.981268E-001    -1.319214E+001   9.981268E-001    -1.319214E+001   5.185673E-002    8.803974E+001    
! Gamma  1.854270E-001    2.507551E+002    0.000000E+000    0.000000E+000    
! Port Impedance  3.000000E+001    0.000000E+000    3.000000E+001    0.000000E+000    

4.500000E+000    5.032397E-002    6.837830E+001    9.980631E-001    -1.349255E+001   9.980631E-001    -1.349255E+001   5.284290E-002    8.773248E+001    
! Gamma  1.926083E-001    2.564835E+002    0.000000E+000    0.000000E+000    
! Port Impedance  3.000000E+001    0.000000E+000    3.000000E+001    0.000000E+000    

4.600000E+000    5.146781E-002    6.803396E+001    9.979981E-001    -1.379300E+001   9.979981E-001    -1.379300E+001   5.383097E-002    8.742131E+001    
! Gamma  1.998682E-001    2.622138E+002    0.000000E+000    0.000000E+000    
! Port Impedance  3.000000E+001    0.000000E+000    3.000000E+001    0.000000E+000    

4.700000E+000    5.261051E-002    6.768734E+001    9.979317E-001    -1.409349E+001   9.979317E-001    -1.409349E+001   5.482124E-002    8.710686E+001    
! Gamma  2.072029E-001    2.679459E+002    0.000000E+000    0.000000E+000    
! Port Impedance  3.000000E+001    0.000000E+000    3.000000E+001    0.000000E+000    

4.800000E+000    5.375209E-002    6.733852E+001    9.978640E-001    -1.439403E+001   9.978640E-001    -1.439403E+001   5.581398E-002    8.678973E+001    
! Gamma  2.146085E-001    2.736799E+002    0.000000E+000    0.000000E+000    
! Port Impedance  3.000000E+001    0.000000E+000    3.000000E+001    0.000000E+000    

4.900000E+000    5.489257E-002    6.698761E+001    9.977949E-001    -1.469462E+001   9.977949E-001    -1.469462E+001   5.680941E-002    8.647048E+001    
! Gamma  2.220811E-001    2.794157E+002    0.000000E+000    0.000000E+000    
! Port Impedance  3.000000E+001    0.000000E+000    3.000000E+001    0.000000E+000    

5.000000E+000    5.603196E-002    6.663467E+001    9.977244E-001    -1.499525E+001   9.977244E-001    -1.499525E+001   5.780772E-002    8.614960E+001    
! Gamma  2.296170E-001    2.851535E+002    0.000000E+000    0.000000E+000    
! Port Impedance  3.000000E+001    0.000000E+000    3.000000E+001    0.000000E+000    

5.100000E+000    5.717026E-002    6.627980E+001    9.976526E-001    -1.529593E+001   9.976526E-001    -1.529593E+001   5.880908E-002    8.582755E+001    
! Gamma  2.372126E-001    2.908931E+002    0.000000E+000    0.000000E+000    
! Port Impedance  3.000000E+001    0.000000E+000    3.000000E+001    0.000000E+000    

5.200000E+000    5.830749E-002    6.592307E+001    9.975794E-001    -1.559666E+001   9.975794E-001    -1.559666E+001   5.981364E-002    8.550476E+001    
! Gamma  2.448643E-001    2.966347E+002    0.000000E+000    0.000000E+000    
! Port Impedance  3.000000E+001    0.000000E+000    3.000000E+001    0.000000E+000    

5.300000E+000    5.944366E-002    6.556454E+001    9.975049E-001    -1.589743E+001   9.975049E-001    -1.589743E+001   6.082151E-002    8.518160E+001    
! Gamma  2.525684E-001    3.023783E+002    0.000000E+000    0.000000E+000    
! Port Impedance  3.000000E+001    0.000000E+000    3.000000E+001    0.000000E+000    

5.400000E+000    6.057877E-002    6.520429E+001    9.974290E-001    -1.619826E+001   9.974290E-001    -1.619826E+001   6.183278E-002    8.485844E+001    
! Gamma  2.603215E-001    3.081238E+002    0.000000E+000    0.000000E+000    
! Port Impedance  3.000000E+001    0.000000E+000    3.000000E+001    0.000000E+000    

5.500000E+000    6.171283E-002    6.484239E+001    9.973518E-001    -1.649914E+001   9.973518E-001    -1.649914E+001   6.284753E-002    8.453558E+001    
! Gamma  2.681203E-001    3.138713E+002    0.000000E+000    0.000000E+000    
! Port Impedance  3.000000E+001    0.000000E+000    3.000000E+001    0.000000E+000    

5.600000E+000    6.284585E-002    6.447889E+001    9.972733E-001    -1.680007E+001   9.972733E-001    -1.680007E+001   6.386580E-002    8.421331E+001    
! Gamma  2.759614E-001    3.196209E+002    0.000000E+000    0.000000E+000    
! Port Impedance  3.000000E+001    0.000000E+000    3.000000E+001    0.000000E+000    

5.700000E+000    6.397783E-002    6.411386E+001    9.971934E-001    -1.710105E+001   9.971934E-001    -1.710105E+001   6.488764E-002    8.389189E+001    
! Gamma  2.838416E-001    3.253724E+002    0.000000E+000    0.000000E+000    
! Port Impedance  3.000000E+001    0.000000E+000    3.000000E+001    0.000000E+000    

5.800000E+000    6.510878E-002    6.374735E+001    9.971122E-001    -1.740208E+001   9.971122E-001    -1.740208E+001   6.591307E-002    8.357155E+001    
! Gamma  2.917577E-001    3.311260E+002    0.000000E+000    0.000000E+000    
! Port Impedance  3.000000E+001    0.000000E+000    3.000000E+001    0.000000E+000    

5.900000E+000    6.623870E-002    6.337941E+001    9.970297E-001    -1.770317E+001   9.970297E-001    -1.770317E+001   6.694208E-002    8.325251E+001    
! Gamma  2.997067E-001    3.368817E+002    0.000000E+000    0.000000E+000    
! Port Impedance  3.000000E+001    0.000000E+000    3.000000E+001    0.000000E+000    

6.000000E+000    6.736759E-002    6.301010E+001    9.969459E-001    -1.800432E+001   9.969459E-001    -1.800432E+001   6.797467E-002    8.293495E+001    
! Gamma  3.076855E-001    3.426394E+002    0.000000E+000    0.000000E+000    
! Port Impedance  3.000000E+001    0.000000E+000    3.000000E+001    0.000000E+000    

6.100000E+000    6.849546E-002    6.263946E+001    9.968607E-001    -1.830552E+001   9.968607E-001    -1.830552E+001   6.901082E-002    8.261903E+001    
! Gamma  3.156913E-001    3.483992E+002    0.000000E+000    0.000000E+000    
! Port Impedance  3.000000E+001    0.000000E+000    3.000000E+001    0.000000E+000    

