! Touchstone file from project 
# GHZ S MA R 10.000000
! Modal data exported
! Port[1] = IF_output:1
! Port[2] = RF_input:1
0.000000E+000    0.000000E+000    0.000000E+000    1.000000E+000    0.000000E+000    1.000000E+000    0.000000E+000    0.000000E+000    0.000000E+000    
! Gamma  0.000000E+000    5.375322E-001    0.000000E+000    0.000000E+000    
! Port Impedance  1.000000E+001    0.000000E+000    1.000000E+001    0.000000E+000    

1.000000E-001    1.367614E-002    8.557075E+001    9.994860E-001    -8.480233E-001   9.994860E-001    -8.480233E-001   1.364956E-002    8.921658E+001    
! Gamma  5.665437E-003    5.282031E+000    0.000000E+000    0.000000E+000    
! Port Impedance  1.000000E+001    0.000000E+000    1.000000E+001    0.000000E+000    

2.000000E-001    2.699148E-002    8.707495E+001    9.989160E-001    -1.665534E+000   9.989160E-001    -1.665534E+000   2.653799E-002    8.647513E+001    
! Gamma  2.402881E-002    1.053346E+001    0.000000E+000    0.000000E+000    
! Port Impedance  1.000000E+001    0.000000E+000    1.000000E+001    0.000000E+000    

3.000000E-001    4.014274E-002    8.684521E+001    9.983471E-001    -2.480491E+000   9.983471E-001    -2.480491E+000   3.950406E-002    8.570504E+001    
! Gamma  4.315922E-002    1.580511E+001    0.000000E+000    0.000000E+000    
! Port Impedance  1.000000E+001    0.000000E+000    1.000000E+001    0.000000E+000    

4.000000E-001    5.323131E-002    8.619705E+001    9.976568E-001    -3.296438E+000   9.976568E-001    -3.296438E+000   5.255285E-002    8.515329E+001    
! Gamma  5.873045E-002    2.108575E+001    0.000000E+000    0.000000E+000    
! Port Impedance  1.000000E+001    0.000000E+000    1.000000E+001    0.000000E+000    

5.000000E-001    6.628605E-002    8.542018E+001    9.968067E-001    -4.112817E+000   9.968067E-001    -4.112817E+000   6.563364E-002    8.457851E+001    
! Gamma  7.043127E-002    2.637041E+001    0.000000E+000    0.000000E+000    
! Port Impedance  1.000000E+001    0.000000E+000    1.000000E+001    0.000000E+000    

6.000000E-001    7.930971E-002    8.460072E+001    9.957853E-001    -4.928966E+000   9.957853E-001    -4.928966E+000   7.871714E-002    8.395213E+001    
! Gamma  7.916724E-002    3.165678E+001    0.000000E+000    0.000000E+000    
! Port Impedance  1.000000E+001    0.000000E+000    1.000000E+001    0.000000E+000    

7.000000E-001    9.229884E-002    8.376825E+001    9.945898E-001    -5.744364E+000   9.945898E-001    -5.744364E+000   9.178455E-002    8.328085E+001    
! Gamma  8.586622E-002    3.694390E+001    0.000000E+000    0.000000E+000    
! Port Impedance  1.000000E+001    0.000000E+000    1.000000E+001    0.000000E+000    

8.000000E-001    1.052487E-001    8.293398E+001    9.932208E-001    -6.558592E+000   9.932208E-001    -6.558592E+000   1.048216E-001    8.257556E+001    
! Gamma  9.121780E-002    4.223142E+001    0.000000E+000    0.000000E+000    
! Port Impedance  1.000000E+001    0.000000E+000    1.000000E+001    0.000000E+000    

9.000000E-001    1.181542E-001    8.210246E+001    9.916806E-001    -7.371285E+000   9.916806E-001    -7.371285E+000   1.178163E-001    8.184571E+001    
! Gamma  9.569125E-002    4.751929E+001    0.000000E+000    0.000000E+000    
! Port Impedance  1.000000E+001    0.000000E+000    1.000000E+001    0.000000E+000    

1.000000E+000    1.310098E-001    8.127562E+001    9.899723E-001    -8.182112E+000   9.899723E-001    -8.182112E+000   1.307585E-001    8.109855E+001    
! Gamma  9.959896E-002    5.280754E+001    0.000000E+000    0.000000E+000    
! Port Impedance  1.000000E+001    0.000000E+000    1.000000E+001    0.000000E+000    

1.100000E+000    1.438098E-001    8.045436E+001    9.880998E-001    -8.990762E+000   9.880998E-001    -8.990762E+000   1.436390E-001    8.033950E+001    
! Gamma  1.031494E-001    5.809625E+001    0.000000E+000    0.000000E+000    
! Port Impedance  1.000000E+001    0.000000E+000    1.000000E+001    0.000000E+000    

1.200000E+000    1.565481E-001    7.963910E+001    9.860672E-001    -9.796933E+000   9.860672E-001    -9.796933E+000   1.564494E-001    7.957263E+001    
! Gamma  1.064836E-001    6.338553E+001    0.000000E+000    0.000000E+000    
! Port Impedance  1.000000E+001    0.000000E+000    1.000000E+001    0.000000E+000    

1.300000E+000    1.692181E-001    7.883008E+001    9.838789E-001    -1.060033E+001   9.838789E-001    -1.060033E+001   1.691820E-001    7.880095E+001    
! Gamma  1.096982E-001    6.867548E+001    0.000000E+000    0.000000E+000    
! Port Impedance  1.000000E+001    0.000000E+000    1.000000E+001    0.000000E+000    

1.400000E+000    1.818133E-001    7.802744E+001    9.815395E-001    -1.140067E+001   9.815395E-001    -1.140067E+001   1.818298E-001    7.802674E+001    
! Gamma  1.128606E-001    7.396620E+001    0.000000E+000    0.000000E+000    
! Port Impedance  1.000000E+001    0.000000E+000    1.000000E+001    0.000000E+000    

1.500000E+000    1.943269E-001    7.723127E+001    9.790536E-001    -1.219766E+001   9.790536E-001    -1.219766E+001   1.943860E-001    7.725175E+001    
! Gamma  1.160186E-001    7.925779E+001    0.000000E+000    0.000000E+000    
! Port Impedance  1.000000E+001    0.000000E+000    1.000000E+001    0.000000E+000    

1.600000E+000    2.067522E-001    7.644162E+001    9.764259E-001    -1.299102E+001   9.764259E-001    -1.299102E+001   2.068443E-001    7.647733E+001    
! Gamma  1.192063E-001    8.455035E+001    0.000000E+000    0.000000E+000    
! Port Impedance  1.000000E+001    0.000000E+000    1.000000E+001    0.000000E+000    

1.700000E+000    2.190824E-001    7.565852E+001    9.736613E-001    -1.378047E+001   9.736613E-001    -1.378047E+001   2.191987E-001    7.570452E+001    
! Gamma  1.224483E-001    8.984396E+001    0.000000E+000    0.000000E+000    
! Port Impedance  1.000000E+001    0.000000E+000    1.000000E+001    0.000000E+000    

1.800000E+000    2.313109E-001    7.488198E+001    9.707643E-001    -1.456574E+001   9.707643E-001    -1.456574E+001   2.314434E-001    7.493417E+001    
! Gamma  1.257626E-001    9.513873E+001    0.000000E+000    0.000000E+000    
! Port Impedance  1.000000E+001    0.000000E+000    1.000000E+001    0.000000E+000    

1.900000E+000    2.434314E-001    7.411197E+001    9.677397E-001    -1.534657E+001   9.677397E-001    -1.534657E+001   2.435732E-001    7.416692E+001    
! Gamma  1.291623E-001    1.004347E+002    0.000000E+000    0.000000E+000    
! Port Impedance  1.000000E+001    0.000000E+000    1.000000E+001    0.000000E+000    

2.000000E+000    2.554377E-001    7.334847E+001    9.645921E-001    -1.612270E+001   9.645921E-001    -1.612270E+001   2.555828E-001    7.340332E+001    
! Gamma  1.326567E-001    1.057320E+002    0.000000E+000    0.000000E+000    
! Port Impedance  1.000000E+001    0.000000E+000    1.000000E+001    0.000000E+000    

2.100000E+000    2.673239E-001    7.259143E+001    9.613262E-001    -1.689389E+001   9.613262E-001    -1.689389E+001   2.674677E-001    7.264380E+001    
! Gamma  1.362527E-001    1.110308E+002    0.000000E+000    0.000000E+000    
! Port Impedance  1.000000E+001    0.000000E+000    1.000000E+001    0.000000E+000    

2.200000E+000    2.790847E-001    7.184079E+001    9.579464E-001    -1.765991E+001   9.579464E-001    -1.765991E+001   2.792233E-001    7.188873E+001    
! Gamma  1.399550E-001    1.163309E+002    0.000000E+000    0.000000E+000    
! Port Impedance  1.000000E+001    0.000000E+000    1.000000E+001    0.000000E+000    

2.300000E+000    2.907149E-001    7.109651E+001    9.544572E-001    -1.842053E+001   9.544572E-001    -1.842053E+001   2.908456E-001    7.113841E+001    
! Gamma  1.437667E-001    1.216327E+002    0.000000E+000    0.000000E+000    
! Port Impedance  1.000000E+001    0.000000E+000    1.000000E+001    0.000000E+000    

2.400000E+000    3.022100E-001    7.035852E+001    9.508630E-001    -1.917556E+001   9.508630E-001    -1.917556E+001   3.023307E-001    7.039309E+001    
! Gamma  1.476898E-001    1.269361E+002    0.000000E+000    0.000000E+000    
! Port Impedance  1.000000E+001    0.000000E+000    1.000000E+001    0.000000E+000    

2.500000E+000    3.135657E-001    6.962678E+001    9.471683E-001    -1.992479E+001   9.471683E-001    -1.992479E+001   3.136753E-001    6.965300E+001    
! Gamma  1.517253E-001    1.322412E+002    0.000000E+000    0.000000E+000    
! Port Impedance  1.000000E+001    0.000000E+000    1.000000E+001    0.000000E+000    

2.600000E+000    3.247783E-001    6.890125E+001    9.433774E-001    -2.066805E+001   9.433774E-001    -2.066805E+001   3.248763E-001    6.891832E+001    
! Gamma  1.558734E-001    1.375480E+002    0.000000E+000    0.000000E+000    
! Port Impedance  1.000000E+001    0.000000E+000    1.000000E+001    0.000000E+000    

2.700000E+000    3.358445E-001    6.818188E+001    9.394945E-001    -2.140519E+001   9.394945E-001    -2.140519E+001   3.359309E-001    6.818921E+001    
! Gamma  1.601337E-001    1.428568E+002    0.000000E+000    0.000000E+000    
! Port Impedance  1.000000E+001    0.000000E+000    1.000000E+001    0.000000E+000    

2.800000E+000    3.467613E-001    6.746865E+001    9.355241E-001    -2.213605E+001   9.355241E-001    -2.213605E+001   3.468366E-001    6.746583E+001    
! Gamma  1.645053E-001    1.481674E+002    0.000000E+000    0.000000E+000    
! Port Impedance  1.000000E+001    0.000000E+000    1.000000E+001    0.000000E+000    

2.900000E+000    3.575263E-001    6.676154E+001    9.314702E-001    -2.286051E+001   9.314702E-001    -2.286051E+001   3.575913E-001    6.674830E+001    
! Gamma  1.689870E-001    1.534801E+002    0.000000E+000    0.000000E+000    
! Port Impedance  1.000000E+001    0.000000E+000    1.000000E+001    0.000000E+000    

3.000000E+000    3.681375E-001    6.606055E+001    9.273373E-001    -2.357844E+001   9.273373E-001    -2.357844E+001   3.681933E-001    6.603675E+001    
! Gamma  1.735770E-001    1.587948E+002    0.000000E+000    0.000000E+000    
! Port Impedance  1.000000E+001    0.000000E+000    1.000000E+001    0.000000E+000    

3.100000E+000    3.785931E-001    6.536567E+001    9.231295E-001    -2.428974E+001   9.231295E-001    -2.428974E+001   3.786409E-001    6.533127E+001    
! Gamma  1.782736E-001    1.641117E+002    0.000000E+000    0.000000E+000    
! Port Impedance  1.000000E+001    0.000000E+000    1.000000E+001    0.000000E+000    

3.200000E+000    3.888917E-001    6.467692E+001    9.188509E-001    -2.499432E+001   9.188509E-001    -2.499432E+001   3.889330E-001    6.463196E+001    
! Gamma  1.830745E-001    1.694308E+002    0.000000E+000    0.000000E+000    
! Port Impedance  1.000000E+001    0.000000E+000    1.000000E+001    0.000000E+000    

3.300000E+000    3.990325E-001    6.399431E+001    9.145058E-001    -2.569210E+001   9.145058E-001    -2.569210E+001   3.990685E-001    6.393891E+001    
! Gamma  1.879775E-001    1.747522E+002    0.000000E+000    0.000000E+000    
! Port Impedance  1.000000E+001    0.000000E+000    1.000000E+001    0.000000E+000    

3.400000E+000    4.090145E-001    6.331786E+001    9.100984E-001    -2.638301E+001   9.100984E-001    -2.638301E+001   4.090467E-001    6.325220E+001    
! Gamma  1.929800E-001    1.800759E+002    0.000000E+000    0.000000E+000    
! Port Impedance  1.000000E+001    0.000000E+000    1.000000E+001    0.000000E+000    

3.500000E+000    4.188375E-001    6.264759E+001    9.056326E-001    -2.706700E+001   9.056326E-001    -2.706700E+001   4.188673E-001    6.257189E+001    
! Gamma  1.980795E-001    1.854021E+002    0.000000E+000    0.000000E+000    
! Port Impedance  1.000000E+001    0.000000E+000    1.000000E+001    0.000000E+000    

3.600000E+000    4.285013E-001    6.198355E+001    9.011125E-001    -2.774401E+001   9.011125E-001    -2.774401E+001   4.285299E-001    6.189805E+001    
! Gamma  2.032732E-001    1.907308E+002    0.000000E+000    0.000000E+000    
! Port Impedance  1.000000E+001    0.000000E+000    1.000000E+001    0.000000E+000    

3.700000E+000    4.380059E-001    6.132575E+001    8.965421E-001    -2.841403E+001   8.965421E-001    -2.841403E+001   4.380345E-001    6.123073E+001    
! Gamma  2.085583E-001    1.960620E+002    0.000000E+000    0.000000E+000    
! Port Impedance  1.000000E+001    0.000000E+000    1.000000E+001    0.000000E+000    

3.800000E+000    4.473516E-001    6.067424E+001    8.919255E-001    -2.907700E+001   8.919255E-001    -2.907700E+001   4.473813E-001    6.056999E+001    
! Gamma  2.139319E-001    2.013959E+002    0.000000E+000    0.000000E+000    
! Port Impedance  1.000000E+001    0.000000E+000    1.000000E+001    0.000000E+000    

3.900000E+000    4.565389E-001    6.002904E+001    8.872664E-001    -2.973293E+001   8.872664E-001    -2.973293E+001   4.565706E-001    5.991586E+001    
! Gamma  2.193912E-001    2.067324E+002    0.000000E+000    0.000000E+000    
! Port Impedance  1.000000E+001    0.000000E+000    1.000000E+001    0.000000E+000    

4.000000E+000    4.655686E-001    5.939018E+001    8.825687E-001    -3.038178E+001   8.825687E-001    -3.038178E+001   4.656031E-001    5.926838E+001    
! Gamma  2.249330E-001    2.120717E+002    0.000000E+000    0.000000E+000    
! Port Impedance  1.000000E+001    0.000000E+000    1.000000E+001    0.000000E+000    

4.100000E+000    4.744414E-001    5.875769E+001    8.778360E-001    -3.102357E+001   8.778360E-001    -3.102357E+001   4.744793E-001    5.862757E+001    
! Gamma  2.305545E-001    2.174138E+002    0.000000E+000    0.000000E+000    
! Port Impedance  1.000000E+001    0.000000E+000    1.000000E+001    0.000000E+000    

4.200000E+000    4.831583E-001    5.813159E+001    8.730721E-001    -3.165830E+001   8.730721E-001    -3.165830E+001   4.832003E-001    5.799346E+001    
! Gamma  2.362525E-001    2.227588E+002    0.000000E+000    0.000000E+000    
! Port Impedance  1.000000E+001    0.000000E+000    1.000000E+001    0.000000E+000    

4.300000E+000    4.917205E-001    5.751192E+001    8.682805E-001    -3.228597E+001   8.682805E-001    -3.228597E+001   4.917670E-001    5.736607E+001    
! Gamma  2.420240E-001    2.281068E+002    0.000000E+000    0.000000E+000    
! Port Impedance  1.000000E+001    0.000000E+000    1.000000E+001    0.000000E+000    

4.400000E+000    5.001293E-001    5.689868E+001    8.634647E-001    -3.290659E+001   8.634647E-001    -3.290659E+001   5.001805E-001    5.674539E+001    
! Gamma  2.478660E-001    2.334578E+002    0.000000E+000    0.000000E+000    
! Port Impedance  1.000000E+001    0.000000E+000    1.000000E+001    0.000000E+000    

4.500000E+000    5.083860E-001    5.629189E+001    8.586281E-001    -3.352020E+001   8.586281E-001    -3.352020E+001   5.084421E-001    5.613145E+001    
! Gamma  2.537754E-001    2.388118E+002    0.000000E+000    0.000000E+000    
! Port Impedance  1.000000E+001    0.000000E+000    1.000000E+001    0.000000E+000    

4.600000E+000    5.164920E-001    5.569157E+001    8.537738E-001    -3.412681E+001   8.537738E-001    -3.412681E+001   5.165532E-001    5.552422E+001    
! Gamma  2.597492E-001    2.441690E+002    0.000000E+000    0.000000E+000    
! Port Impedance  1.000000E+001    0.000000E+000    1.000000E+001    0.000000E+000    

4.700000E+000    5.244491E-001    5.509771E+001    8.489051E-001    -3.472646E+001   8.489051E-001    -3.472646E+001   5.245153E-001    5.492371E+001    
! Gamma  2.657843E-001    2.495294E+002    0.000000E+000    0.000000E+000    
! Port Impedance  1.000000E+001    0.000000E+000    1.000000E+001    0.000000E+000    

4.800000E+000    5.322587E-001    5.451031E+001    8.440250E-001    -3.531918E+001   8.440250E-001    -3.531918E+001   5.323300E-001    5.432991E+001    
! Gamma  2.718779E-001    2.548931E+002    0.000000E+000    0.000000E+000    
! Port Impedance  1.000000E+001    0.000000E+000    1.000000E+001    0.000000E+000    

4.900000E+000    5.399227E-001    5.392938E+001    8.391365E-001    -3.590502E+001   8.391365E-001    -3.590502E+001   5.399988E-001    5.374278E+001    
! Gamma  2.780270E-001    2.602601E+002    0.000000E+000    0.000000E+000    
! Port Impedance  1.000000E+001    0.000000E+000    1.000000E+001    0.000000E+000    

5.000000E+000    5.474428E-001    5.335491E+001    8.342424E-001    -3.648401E+001   8.342424E-001    -3.648401E+001   5.475236E-001    5.316232E+001    
! Gamma  2.842285E-001    2.656304E+002    0.000000E+000    0.000000E+000    
! Port Impedance  1.000000E+001    0.000000E+000    1.000000E+001    0.000000E+000    

5.100000E+000    5.548209E-001    5.278687E+001    8.293455E-001    -3.705620E+001   8.293455E-001    -3.705620E+001   5.549061E-001    5.258849E+001    
! Gamma  2.904798E-001    2.710043E+002    0.000000E+000    0.000000E+000    
! Port Impedance  1.000000E+001    0.000000E+000    1.000000E+001    0.000000E+000    

5.200000E+000    5.620589E-001    5.222525E+001    8.244483E-001    -3.762164E+001   8.244483E-001    -3.762164E+001   5.621482E-001    5.202126E+001    
! Gamma  2.967779E-001    2.763816E+002    0.000000E+000    0.000000E+000    
! Port Impedance  1.000000E+001    0.000000E+000    1.000000E+001    0.000000E+000    

5.300000E+000    5.691588E-001    5.167004E+001    8.195534E-001    -3.818040E+001   8.195534E-001    -3.818040E+001   5.692519E-001    5.146059E+001    
! Gamma  3.031200E-001    2.817624E+002    0.000000E+000    0.000000E+000    
! Port Impedance  1.000000E+001    0.000000E+000    1.000000E+001    0.000000E+000    

5.400000E+000    5.761224E-001    5.112120E+001    8.146632E-001    -3.873251E+001   8.146632E-001    -3.873251E+001   5.762191E-001    5.090645E+001    
! Gamma  3.095036E-001    2.871469E+002    0.000000E+000    0.000000E+000    
! Port Impedance  1.000000E+001    0.000000E+000    1.000000E+001    0.000000E+000    

5.500000E+000    5.829520E-001    5.057870E+001    8.097799E-001    -3.927805E+001   8.097799E-001    -3.927805E+001   5.830517E-001    5.035879E+001    
! Gamma  3.159258E-001    2.925350E+002    0.000000E+000    0.000000E+000    
! Port Impedance  1.000000E+001    0.000000E+000    1.000000E+001    0.000000E+000    

5.600000E+000    5.896494E-001    5.004251E+001    8.049058E-001    -3.981707E+001   8.049058E-001    -3.981707E+001   5.897519E-001    4.981755E+001    
! Gamma  3.223842E-001    2.979269E+002    0.000000E+000    0.000000E+000    
! Port Impedance  1.000000E+001    0.000000E+000    1.000000E+001    0.000000E+000    

5.700000E+000    5.962168E-001    4.951260E+001    8.000428E-001    -4.034963E+001   8.000428E-001    -4.034963E+001   5.963218E-001    4.928270E+001    
! Gamma  3.288761E-001    3.033226E+002    0.000000E+000    0.000000E+000    
! Port Impedance  1.000000E+001    0.000000E+000    1.000000E+001    0.000000E+000    

5.800000E+000    6.026562E-001    4.898891E+001    7.951931E-001    -4.087581E+001   7.951931E-001    -4.087581E+001   6.027633E-001    4.875418E+001    
! Gamma  3.353991E-001    3.087220E+002    0.000000E+000    0.000000E+000    
! Port Impedance  1.000000E+001    0.000000E+000    1.000000E+001    0.000000E+000    

5.900000E+000    6.089698E-001    4.847141E+001    7.903583E-001    -4.139567E+001   7.903583E-001    -4.139567E+001   6.090787E-001    4.823193E+001    
! Gamma  3.419509E-001    3.141254E+002    0.000000E+000    0.000000E+000    
! Port Impedance  1.000000E+001    0.000000E+000    1.000000E+001    0.000000E+000    

6.000000E+000    6.151597E-001    4.796005E+001    7.855404E-001    -4.190927E+001   7.855404E-001    -4.190927E+001   6.152701E-001    4.771590E+001    
! Gamma  3.485292E-001    3.195327E+002    0.000000E+000    0.000000E+000    
! Port Impedance  1.000000E+001    0.000000E+000    1.000000E+001    0.000000E+000    

6.100000E+000    6.212280E-001    4.745478E+001    7.807410E-001    -4.241670E+001   7.807410E-001    -4.241670E+001   6.213395E-001    4.720601E+001    
! Gamma  3.551316E-001    3.249440E+002    0.000000E+000    0.000000E+000    
! Port Impedance  1.000000E+001    0.000000E+000    1.000000E+001    0.000000E+000    

