! Touchstone file from project 
# GHZ S MA R 50.000000
! Modal data exported
! Port[1] = IF_output:1
! Port[2] = RF_input:1
0.000000E+000    0.000000E+000    0.000000E+000    1.000000E+000    0.000000E+000    1.000000E+000    0.000000E+000    0.000000E+000    0.000000E+000    
! Gamma  0.000000E+000    1.496388E-001    0.000000E+000    0.000000E+000    
! Port Impedance  5.000000E+001    0.000000E+000    5.000000E+001    0.000000E+000    

1.000000E-001    4.825871E-004    2.107942E+001    9.999677E-001    -2.380980E-001   9.999677E-001    -2.380980E-001   4.337159E-004    1.558930E+002    
! Gamma  5.867982E-003    5.433792E+000    0.000000E+000    0.000000E+000    
! Port Impedance  5.000000E+001    0.000000E+000    5.000000E+001    0.000000E+000    

2.000000E-001    3.651531E-004    6.865159E+001    9.999674E-001    -4.762013E-001   9.999674E-001    -4.762013E-001   3.522552E-004    9.369701E+001    
! Gamma  6.370815E-003    1.086453E+001    0.000000E+000    0.000000E+000    
! Port Impedance  5.000000E+001    0.000000E+000    5.000000E+001    0.000000E+000    

3.000000E-001    6.020601E-004    1.247948E+002    9.999665E-001    -7.143127E-001   9.999665E-001    -7.143127E-001   7.538186E-004    4.335936E+001    
! Gamma  7.205019E-003    1.629603E+001    0.000000E+000    0.000000E+000    
! Port Impedance  5.000000E+001    0.000000E+000    5.000000E+001    0.000000E+000    

4.000000E-001    1.116526E-003    1.453908E+002    9.999643E-001    -9.524304E-001   9.999643E-001    -9.524304E-001   1.420765E-003    2.797755E+001    
! Gamma  8.369568E-003    2.172783E+001    0.000000E+000    0.000000E+000    
! Port Impedance  5.000000E+001    0.000000E+000    5.000000E+001    0.000000E+000    

5.000000E-001    1.712760E-003    1.536713E+002    9.999606E-001    -1.190546E+000   9.999606E-001    -1.190546E+000   2.180818E-003    2.120501E+001    
! Gamma  9.861601E-003    2.715986E+001    0.000000E+000    0.000000E+000    
! Port Impedance  5.000000E+001    0.000000E+000    5.000000E+001    0.000000E+000    

6.000000E-001    2.316647E-003    1.578630E+002    9.999551E-001    -1.428646E+000   9.999551E-001    -1.428646E+000   2.960210E-003    1.723293E+001    
! Gamma  1.167734E-002    3.259212E+001    0.000000E+000    0.000000E+000    
! Port Impedance  5.000000E+001    0.000000E+000    5.000000E+001    0.000000E+000    

7.000000E-001    2.890610E-003    1.602445E+002    9.999477E-001    -1.666711E+000   9.999477E-001    -1.666711E+000   3.712083E-003    1.447238E+001    
! Gamma  1.381217E-002    3.802465E+001    0.000000E+000    0.000000E+000    
! Port Impedance  5.000000E+001    0.000000E+000    5.000000E+001    0.000000E+000    

8.000000E-001    3.415338E-003    1.616558E+002    9.999384E-001    -1.904721E+000   9.999384E-001    -1.904721E+000   4.407005E-003    1.234383E+001    
! Gamma  1.626073E-002    4.345746E+001    0.000000E+000    0.000000E+000    
! Port Impedance  5.000000E+001    0.000000E+000    5.000000E+001    0.000000E+000    

9.000000E-001    3.883137E-003    1.624766E+002    9.999273E-001    -2.142655E+000   9.999273E-001    -2.142655E+000   5.028916E-003    1.059900E+001    
! Gamma  1.901691E-002    4.889060E+001    0.000000E+000    0.000000E+000    
! Port Impedance  5.000000E+001    0.000000E+000    5.000000E+001    0.000000E+000    

1.000000E+000    4.293542E-003    1.629048E+002    9.999147E-001    -2.380494E+000   9.999147E-001    -2.380494E+000   5.571554E-003    9.121498E+000    
! Gamma  2.207391E-002    5.432410E+001    0.000000E+000    0.000000E+000    
! Port Impedance  5.000000E+001    0.000000E+000    5.000000E+001    0.000000E+000    

1.100000E+000    4.650215E-003    1.630540E+002    9.999007E-001    -2.618219E+000   9.999007E-001    -2.618219E+000   6.035322E-003    7.853895E+000    
! Gamma  2.542428E-002    5.975800E+001    0.000000E+000    0.000000E+000    
! Port Impedance  5.000000E+001    0.000000E+000    5.000000E+001    0.000000E+000    

1.200000E+000    4.958892E-003    1.629953E+002    9.998855E-001    -2.855816E+000   9.998855E-001    -2.855816E+000   6.424831E-003    6.766974E+000    
! Gamma  2.905999E-002    6.519233E+001    0.000000E+000    0.000000E+000    
! Port Impedance  5.000000E+001    0.000000E+000    5.000000E+001    0.000000E+000    

1.300000E+000    5.226117E-003    1.627763E+002    9.998692E-001    -3.093270E+000   9.998692E-001    -3.093270E+000   6.747112E-003    5.845544E+000    
! Gamma  3.297244E-002    7.062713E+001    0.000000E+000    0.000000E+000    
! Port Impedance  5.000000E+001    0.000000E+000    5.000000E+001    0.000000E+000    

1.400000E+000    5.458532E-003    1.624313E+002    9.998521E-001    -3.330572E+000   9.998521E-001    -3.330572E+000   7.010420E-003    5.081467E+000    
! Gamma  3.715253E-002    7.606242E+001    0.000000E+000    0.000000E+000    
! Port Impedance  5.000000E+001    0.000000E+000    5.000000E+001    0.000000E+000    

1.500000E+000    5.662510E-003    1.619867E+002    9.998343E-001    -3.567713E+000   9.998343E-001    -3.567713E+000   7.223474E-003    4.470059E+000    
! Gamma  4.159074E-002    8.149825E+001    0.000000E+000    0.000000E+000    
! Port Impedance  5.000000E+001    0.000000E+000    5.000000E+001    0.000000E+000    

1.600000E+000    5.844007E-003    1.614648E+002    9.998160E-001    -3.804684E+000   9.998160E-001    -3.804684E+000   7.395023E-003    4.008146E+000    
! Gamma  4.627713E-002    8.693465E+001    0.000000E+000    0.000000E+000    
! Port Impedance  5.000000E+001    0.000000E+000    5.000000E+001    0.000000E+000    

1.700000E+000    6.008531E-003    1.608857E+002    9.997973E-001    -4.041480E+000   9.997973E-001    -4.041480E+000   7.533623E-003    3.692950E+000    
! Gamma  5.120145E-002    9.237165E+001    0.000000E+000    0.000000E+000    
! Port Impedance  5.000000E+001    0.000000E+000    5.000000E+001    0.000000E+000    

1.800000E+000    6.161189E-003    1.602690E+002    9.997783E-001    -4.278097E+000   9.997783E-001    -4.278097E+000   7.647560E-003    3.521396E+000    
! Gamma  5.635315E-002    9.780929E+001    0.000000E+000    0.000000E+000    
! Port Impedance  5.000000E+001    0.000000E+000    5.000000E+001    0.000000E+000    

1.900000E+000    6.306761E-003    1.596354E+002    9.997592E-001    -4.514531E+000   9.997592E-001    -4.514531E+000   7.744885E-003    3.489635E+000    
! Gamma  6.172148E-002    1.032476E+002    0.000000E+000    0.000000E+000    
! Port Impedance  5.000000E+001    0.000000E+000    5.000000E+001    0.000000E+000    

2.000000E+000    6.449806E-003    1.590071E+002    9.997401E-001    -4.750781E+000   9.997401E-001    -4.750781E+000   7.833505E-003    3.592703E+000    
! Gamma  6.729552E-002    1.086866E+002    0.000000E+000    0.000000E+000    
! Port Impedance  5.000000E+001    0.000000E+000    5.000000E+001    0.000000E+000    

2.100000E+000    6.594791E-003    1.584095E+002    9.997211E-001    -4.986844E+000   9.997211E-001    -4.986844E+000   7.921362E-003    3.824271E+000    
! Gamma  7.306421E-002    1.141263E+002    0.000000E+000    0.000000E+000    
! Port Impedance  5.000000E+001    0.000000E+000    5.000000E+001    0.000000E+000    

2.200000E+000    6.746244E-003    1.578720E+002    9.997022E-001    -5.222721E+000   9.997022E-001    -5.222721E+000   8.016661E-003    4.176523E+000    
! Gamma  7.901644E-002    1.195667E+002    0.000000E+000    0.000000E+000    
! Port Impedance  5.000000E+001    0.000000E+000    5.000000E+001    0.000000E+000    

2.300000E+000    6.908945E-003    1.574299E+002    9.996835E-001    -5.458413E+000   9.996835E-001    -5.458413E+000   8.128209E-003    4.640213E+000    
! Gamma  8.514111E-002    1.250079E+002    0.000000E+000    0.000000E+000    
! Port Impedance  5.000000E+001    0.000000E+000    5.000000E+001    0.000000E+000    

2.400000E+000    7.088190E-003    1.571259E+002    9.996650E-001    -5.693919E+000   9.996650E-001    -5.693919E+000   8.265882E-003    5.205040E+000    
! Gamma  9.142712E-002    1.304500E+002    0.000000E+000    0.000000E+000    
! Port Impedance  5.000000E+001    0.000000E+000    5.000000E+001    0.000000E+000    

2.500000E+000    7.290158E-003    1.570132E+002    9.996468E-001    -5.929244E+000   9.996468E-001    -5.929244E+000   8.441307E-003    5.860567E+000    
! Gamma  9.786347E-002    1.358928E+002    0.000000E+000    0.000000E+000    
! Port Impedance  5.000000E+001    0.000000E+000    5.000000E+001    0.000000E+000    

2.600000E+000    7.522450E-003    1.571595E+002    9.996287E-001    -6.164389E+000   9.996287E-001    -6.164389E+000   8.668904E-003    6.598060E+000    
! Gamma  1.044393E-001    1.413365E+002    0.000000E+000    0.000000E+000    
! Port Impedance  5.000000E+001    0.000000E+000    5.000000E+001    0.000000E+000    

2.700000E+000    7.794925E-003    1.576533E+002    9.996108E-001    -6.399361E+000   9.996108E-001    -6.399361E+000   8.967505E-003    7.413950E+000    
! Gamma  1.111438E-001    1.467811E+002    0.000000E+000    0.000000E+000    
! Port Impedance  5.000000E+001    0.000000E+000    5.000000E+001    0.000000E+000    

2.800000E+000    8.121022E-003    1.586141E+002    9.995927E-001    -6.634167E+000   9.995927E-001    -6.634167E+000   9.362989E-003    8.316216E+000    
! Gamma  1.179665E-001    1.522266E+002    0.000000E+000    0.000000E+000    
! Port Impedance  5.000000E+001    0.000000E+000    5.000000E+001    0.000000E+000    

2.900000E+000    8.519940E-003    1.602094E+002    9.995741E-001    -6.868823E+000   9.995741E-001    -6.868823E+000   9.892693E-003    9.336201E+000    
! Gamma  1.248971E-001    1.576730E+002    0.000000E+000    0.000000E+000    
! Port Impedance  5.000000E+001    0.000000E+000    5.000000E+001    0.000000E+000    

3.000000E+000    9.020287E-003    1.626839E+002    9.995546E-001    -7.103358E+000   9.995546E-001    -7.103358E+000   1.061301E-002    1.055108E+001    
! Gamma  1.319256E-001    1.631203E+002    0.000000E+000    0.000000E+000    
! Port Impedance  5.000000E+001    0.000000E+000    5.000000E+001    0.000000E+000    

3.100000E+000    9.666224E-003    1.664135E+002    9.995332E-001    -7.337838E+000   9.995332E-001    -7.337838E+000   1.161275E-002    1.212806E+001    
! Gamma  1.390421E-001    1.685686E+002    0.000000E+000    0.000000E+000    
! Port Impedance  5.000000E+001    0.000000E+000    5.000000E+001    0.000000E+000    

3.200000E+000    1.052712E-002    1.720087E+002    9.995090E-001    -7.572410E+000   9.995090E-001    -7.572410E+000   1.303608E-002    1.441528E+001    
! Gamma  1.462373E-001    1.740178E+002    0.000000E+000    0.000000E+000    
! Port Impedance  5.000000E+001    0.000000E+000    5.000000E+001    0.000000E+000    

3.300000E+000    1.170746E-002    -1.794748E+002   9.994820E-001    -7.807431E+000   9.994820E-001    -7.807431E+000   1.511562E-002    1.813454E+001    
! Gamma  1.535020E-001    1.794681E+002    0.000000E+000    0.000000E+000    
! Port Impedance  5.000000E+001    0.000000E+000    5.000000E+001    0.000000E+000    

3.400000E+000    1.332069E-002    -1.661229E+002   9.994610E-001    -8.043658E+000   9.994610E-001    -8.043658E+000   1.817033E-002    2.477598E+001    
! Gamma  1.608275E-001    1.849193E+002    0.000000E+000    0.000000E+000    
! Port Impedance  5.000000E+001    0.000000E+000    5.000000E+001    0.000000E+000    

3.500000E+000    1.521134E-002    -1.446407E+002   9.994911E-001    -8.281342E+000   9.994911E-001    -8.281342E+000   2.222387E-002    3.710839E+001    
! Gamma  1.682054E-001    1.903716E+002    0.000000E+000    0.000000E+000    
! Port Impedance  5.000000E+001    0.000000E+000    5.000000E+001    0.000000E+000    

3.600000E+000    1.593589E-002    -1.119997E+002   9.996111E-001    -8.513798E+000   9.996111E-001    -8.513798E+000   2.519233E-002    5.756925E+001    
! Gamma  1.756275E-001    1.958249E+002    0.000000E+000    0.000000E+000    
! Port Impedance  5.000000E+001    0.000000E+000    5.000000E+001    0.000000E+000    

3.700000E+000    1.355819E-002    -7.360135E+001   9.995883E-001    -8.739427E+000   9.995883E-001    -8.739427E+000   2.315576E-002    8.029443E+001    
! Gamma  1.830863E-001    2.012793E+002    0.000000E+000    0.000000E+000    
! Port Impedance  5.000000E+001    0.000000E+000    5.000000E+001    0.000000E+000    

3.800000E+000    1.019616E-002    -3.993984E+001   9.994940E-001    -8.972759E+000   9.994940E-001    -8.972759E+000   1.836948E-002    9.498780E+001    
! Gamma  1.905745E-001    2.067348E+002    0.000000E+000    0.000000E+000    
! Port Impedance  5.000000E+001    0.000000E+000    5.000000E+001    0.000000E+000    

3.900000E+000    8.002709E-003    -1.294316E+001   9.994671E-001    -9.208186E+000   9.994671E-001    -9.208186E+000   1.450266E-002    1.012505E+002    
! Gamma  1.980852E-001    2.121914E+002    0.000000E+000    0.000000E+000    
! Port Impedance  5.000000E+001    0.000000E+000    5.000000E+001    0.000000E+000    

4.000000E+000    6.934287E-003    8.417160E+000    9.994662E-001    -9.442572E+000   9.994662E-001    -9.442572E+000   1.200419E-002    1.026296E+002    
! Gamma  2.056118E-001    2.176490E+002    0.000000E+000    0.000000E+000    
! Port Impedance  5.000000E+001    0.000000E+000    5.000000E+001    0.000000E+000    

4.100000E+000    6.525798E-003    2.467839E+001    9.994694E-001    -9.676179E+000   9.994694E-001    -9.676179E+000   1.045564E-002    1.016085E+002    
! Gamma  2.131484E-001    2.231078E+002    0.000000E+000    0.000000E+000    
! Port Impedance  5.000000E+001    0.000000E+000    5.000000E+001    0.000000E+000    

4.200000E+000    6.455641E-003    3.663623E+001    9.994719E-001    -9.909377E+000   9.994719E-001    -9.909377E+000   9.503926E-003    9.955058E+001    
! Gamma  2.206891E-001    2.285677E+002    0.000000E+000    0.000000E+000    
! Port Impedance  5.000000E+001    0.000000E+000    5.000000E+001    0.000000E+000    

4.300000E+000    6.551364E-003    4.531981E+001    9.994733E-001    -1.014235E+001   9.994733E-001    -1.014235E+001   8.928357E-003    9.717367E+001    
! Gamma  2.282287E-001    2.340288E+002    0.000000E+000    0.000000E+000    
! Port Impedance  5.000000E+001    0.000000E+000    5.000000E+001    0.000000E+000    

4.400000E+000    6.727818E-003    5.164819E+001    9.994740E-001    -1.037518E+001   9.994740E-001    -1.037518E+001   8.595521E-003    9.483750E+001    
! Gamma  2.357621E-001    2.394910E+002    0.000000E+000    0.000000E+000    
! Port Impedance  5.000000E+001    0.000000E+000    5.000000E+001    0.000000E+000    

4.500000E+000    6.943743E-003    5.630859E+001    9.994743E-001    -1.060791E+001   9.994743E-001    -1.060791E+001   8.423542E-003    9.270339E+001    
! Gamma  2.432849E-001    2.449544E+002    0.000000E+000    0.000000E+000    
! Port Impedance  5.000000E+001    0.000000E+000    5.000000E+001    0.000000E+000    

4.600000E+000    7.178973E-003    5.978090E+001    9.994744E-001    -1.084055E+001   9.994744E-001    -1.084055E+001   8.360955E-003    9.082652E+001    
! Gamma  2.507927E-001    2.504189E+002    0.000000E+000    0.000000E+000    
! Port Impedance  5.000000E+001    0.000000E+000    5.000000E+001    0.000000E+000    

4.700000E+000    7.423483E-003    6.239450E+001    9.994744E-001    -1.107313E+001   9.994744E-001    -1.107313E+001   8.374608E-003    8.920882E+001    
! Gamma  2.582818E-001    2.558847E+002    0.000000E+000    0.000000E+000    
! Port Impedance  5.000000E+001    0.000000E+000    5.000000E+001    0.000000E+000    

4.800000E+000    7.672220E-003    6.437670E+001    9.994746E-001    -1.130565E+001   9.994746E-001    -1.130565E+001   8.442631E-003    8.782829E+001    
! Gamma  2.657485E-001    2.613516E+002    0.000000E+000    0.000000E+000    
! Port Impedance  5.000000E+001    0.000000E+000    5.000000E+001    0.000000E+000    

4.900000E+000    7.922624E-003    6.588663E+001    9.994748E-001    -1.153811E+001   9.994748E-001    -1.153811E+001   8.550263E-003    8.665440E+001    
! Gamma  2.731897E-001    2.668198E+002    0.000000E+000    0.000000E+000    
! Port Impedance  5.000000E+001    0.000000E+000    5.000000E+001    0.000000E+000    

5.000000E+000    8.173406E-003    6.703772E+001    9.994752E-001    -1.177052E+001   9.994752E-001    -1.177052E+001   8.687321E-003    8.565570E+001    
! Gamma  2.806025E-001    2.722892E+002    0.000000E+000    0.000000E+000    
! Port Impedance  5.000000E+001    0.000000E+000    5.000000E+001    0.000000E+000    

5.100000E+000    8.423940E-003    6.791227E+001    9.994757E-001    -1.200289E+001   9.994757E-001    -1.200289E+001   8.846630E-003    8.480316E+001    
! Gamma  2.879843E-001    2.777598E+002    0.000000E+000    0.000000E+000    
! Port Impedance  5.000000E+001    0.000000E+000    5.000000E+001    0.000000E+000    

5.200000E+000    8.673939E-003    6.857103E+001    9.994763E-001    -1.223521E+001   9.994763E-001    -1.223521E+001   9.023031E-003    8.407145E+001    
! Gamma  2.953328E-001    2.832316E+002    0.000000E+000    0.000000E+000    
! Port Impedance  5.000000E+001    0.000000E+000    5.000000E+001    0.000000E+000    

5.300000E+000    8.923296E-003    6.905955E+001    9.994770E-001    -1.246751E+001   9.994770E-001    -1.246751E+001   9.212743E-003    8.343908E+001    
! Gamma  3.026461E-001    2.887047E+002    0.000000E+000    0.000000E+000    
! Port Impedance  5.000000E+001    0.000000E+000    5.000000E+001    0.000000E+000    

5.400000E+000    9.171991E-003    6.941246E+001    9.994778E-001    -1.269977E+001   9.994778E-001    -1.269977E+001   9.412944E-003    8.288817E+001    
! Gamma  3.099224E-001    2.941790E+002    0.000000E+000    0.000000E+000    
! Port Impedance  5.000000E+001    0.000000E+000    5.000000E+001    0.000000E+000    

5.500000E+000    9.420041E-003    6.965645E+001    9.994787E-001    -1.293201E+001   9.994787E-001    -1.293201E+001   9.621493E-003    8.240396E+001    
! Gamma  3.171601E-001    2.996546E+002    0.000000E+000    0.000000E+000    
! Port Impedance  5.000000E+001    0.000000E+000    5.000000E+001    0.000000E+000    

5.600000E+000    9.667480E-003    6.981230E+001    9.994796E-001    -1.316422E+001   9.994796E-001    -1.316422E+001   9.836737E-003    8.197431E+001    
! Gamma  3.243582E-001    3.051315E+002    0.000000E+000    0.000000E+000    
! Port Impedance  5.000000E+001    0.000000E+000    5.000000E+001    0.000000E+000    

5.700000E+000    9.914345E-003    6.989636E+001    9.994805E-001    -1.339642E+001   9.994805E-001    -1.339642E+001   1.005738E-002    8.158933E+001    
! Gamma  3.315154E-001    3.106096E+002    0.000000E+000    0.000000E+000    
! Port Impedance  5.000000E+001    0.000000E+000    5.000000E+001    0.000000E+000    

5.800000E+000    1.016067E-002    6.992163E+001    9.994813E-001    -1.362860E+001   9.994813E-001    -1.362860E+001   1.028241E-002    8.124090E+001    
! Gamma  3.386312E-001    3.160891E+002    0.000000E+000    0.000000E+000    
! Port Impedance  5.000000E+001    0.000000E+000    5.000000E+001    0.000000E+000    

5.900000E+000    1.040647E-002    6.989850E+001    9.994821E-001    -1.386077E+001   9.994821E-001    -1.386077E+001   1.051099E-002    8.092240E+001    
! Gamma  3.457047E-001    3.215698E+002    0.000000E+000    0.000000E+000    
! Port Impedance  5.000000E+001    0.000000E+000    5.000000E+001    0.000000E+000    

6.000000E+000    1.065177E-002    6.983535E+001    9.994829E-001    -1.409294E+001   9.994829E-001    -1.409294E+001   1.074245E-002    8.062843E+001    
! Gamma  3.527357E-001    3.270518E+002    0.000000E+000    0.000000E+000    
! Port Impedance  5.000000E+001    0.000000E+000    5.000000E+001    0.000000E+000    

6.100000E+000    1.089658E-002    6.973898E+001    9.994835E-001    -1.432511E+001   9.994835E-001    -1.432511E+001   1.097625E-002    8.035453E+001    
! Gamma  3.597239E-001    3.325352E+002    0.000000E+000    0.000000E+000    
! Port Impedance  5.000000E+001    0.000000E+000    5.000000E+001    0.000000E+000    

