! Touchstone file from project 
# GHZ S MA R 30.000000
! Modal data exported
! Port[1] = IF_output:1
! Port[2] = RF_input:1
0.000000E+000    0.000000E+000    0.000000E+000    1.000000E+000    0.000000E+000    1.000000E+000    0.000000E+000    0.000000E+000    0.000000E+000    
! Gamma  1.008986E-001    0.000000E+000    0.000000E+000    0.000000E+000    
! Port Impedance  3.000000E+001    0.000000E+000    3.000000E+001    0.000000E+000    

1.000000E-001    8.395773E-004    5.632275E+001    9.999496E-001    -2.802754E-001   9.999496E-001    -2.802754E-001   7.949087E-004    1.178365E+002    
! Gamma  6.230977E-003    5.681200E+000    0.000000E+000    0.000000E+000    
! Port Impedance  3.000000E+001    0.000000E+000    3.000000E+001    0.000000E+000    

2.000000E-001    1.899454E-003    7.536300E+001    9.999212E-001    -5.600347E-001   9.999212E-001    -5.600347E-001   9.099724E-004    1.108459E+002    
! Gamma  8.248221E-003    1.136372E+001    0.000000E+000    0.000000E+000    
! Port Impedance  3.000000E+001    0.000000E+000    3.000000E+001    0.000000E+000    

3.000000E-001    2.664157E-003    7.931569E+001    9.998901E-001    -8.387496E-001   9.998901E-001    -8.387496E-001   1.420989E-003    1.021719E+002    
! Gamma  1.150910E-002    1.704592E+001    0.000000E+000    0.000000E+000    
! Port Impedance  3.000000E+001    0.000000E+000    3.000000E+001    0.000000E+000    

4.000000E-001    3.307295E-003    8.056285E+001    9.998628E-001    -1.116810E+000   9.998628E-001    -1.116810E+000   2.090880E-003    9.821123E+001    
! Gamma  1.587412E-002    2.272804E+001    0.000000E+000    0.000000E+000    
! Port Impedance  3.000000E+001    0.000000E+000    3.000000E+001    0.000000E+000    

5.000000E-001    3.908035E-003    8.103847E+001    9.998404E-001    -1.394536E+000   9.998404E-001    -1.394536E+000   2.815193E-003    9.613092E+001    
! Gamma  2.117331E-002    2.841015E+001    0.000000E+000    0.000000E+000    
! Port Impedance  3.000000E+001    0.000000E+000    3.000000E+001    0.000000E+000    

6.000000E-001    4.498800E-003    8.124300E+001    9.998219E-001    -1.672102E+000   9.998219E-001    -1.672102E+000   3.554146E-003    9.479272E+001    
! Gamma  2.722375E-002    3.409232E+001    0.000000E+000    0.000000E+000    
! Port Impedance  3.000000E+001    0.000000E+000    3.000000E+001    0.000000E+000    

7.000000E-001    5.091940E-003    8.132101E+001    9.998061E-001    -1.949587E+000   9.998061E-001    -1.949587E+000   4.293246E-003    9.381130E+001    
! Gamma  3.384524E-002    3.977463E+001    0.000000E+000    0.000000E+000    
! Port Impedance  3.000000E+001    0.000000E+000    3.000000E+001    0.000000E+000    

8.000000E-001    5.691754E-003    8.131977E+001    9.997918E-001    -2.227020E+000   9.997918E-001    -2.227020E+000   5.027582E-003    9.303475E+001    
! Gamma  4.087219E-002    4.545717E+001    0.000000E+000    0.000000E+000    
! Port Impedance  3.000000E+001    0.000000E+000    3.000000E+001    0.000000E+000    

9.000000E-001    6.299414E-003    8.125878E+001    9.997785E-001    -2.504403E+000   9.997785E-001    -2.504403E+000   5.755864E-003    9.239155E+001    
! Gamma  4.816095E-002    5.114003E+001    0.000000E+000    0.000000E+000    
! Port Impedance  3.000000E+001    0.000000E+000    3.000000E+001    0.000000E+000    

1.000000E+000    6.914923E-003    8.114908E+001    9.997655E-001    -2.781732E+000   9.997655E-001    -2.781732E+000   6.478144E-003    9.184271E+001    
! Gamma  5.559305E-002    5.682330E+001    0.000000E+000    0.000000E+000    
! Port Impedance  3.000000E+001    0.000000E+000    3.000000E+001    0.000000E+000    

1.100000E+000    7.537899E-003    8.099861E+001    9.997526E-001    -3.058997E+000   9.997526E-001    -3.058997E+000   7.194935E-003    9.136452E+001    
! Gamma  6.307535E-002    6.250706E+001    0.000000E+000    0.000000E+000    
! Port Impedance  3.000000E+001    0.000000E+000    3.000000E+001    0.000000E+000    

1.200000E+000    8.167875E-003    8.081376E+001    9.997395E-001    -3.336187E+000   9.997395E-001    -3.336187E+000   7.906874E-003    9.094149E+001    
! Gamma  7.053805E-002    6.819140E+001    0.000000E+000    0.000000E+000    
! Port Impedance  3.000000E+001    0.000000E+000    3.000000E+001    0.000000E+000    

1.300000E+000    8.804414E-003    8.059986E+001    9.997260E-001    -3.613292E+000   9.997260E-001    -3.613292E+000   8.614595E-003    9.056287E+001    
! Gamma  7.793163E-002    7.387639E+001    0.000000E+000    0.000000E+000    
! Port Impedance  3.000000E+001    0.000000E+000    3.000000E+001    0.000000E+000    

1.400000E+000    9.447140E-003    8.036138E+001    9.997120E-001    -3.890300E+000   9.997120E-001    -3.890300E+000   9.318691E-003    9.022089E+001    
! Gamma  8.522341E-002    7.956210E+001    0.000000E+000    0.000000E+000    
! Port Impedance  3.000000E+001    0.000000E+000    3.000000E+001    0.000000E+000    

1.500000E+000    1.009574E-002    8.010210E+001    9.996976E-001    -4.167202E+000   9.996976E-001    -4.167202E+000   1.001971E-002    8.990976E+001    
! Gamma  9.239409E-002    8.524858E+001    0.000000E+000    0.000000E+000    
! Port Impedance  3.000000E+001    0.000000E+000    3.000000E+001    0.000000E+000    

1.600000E+000    1.074996E-002    7.982517E+001    9.996825E-001    -4.443991E+000   9.996825E-001    -4.443991E+000   1.071816E-002    8.962502E+001    
! Gamma  9.943466E-002    9.093590E+001    0.000000E+000    0.000000E+000    
! Port Impedance  3.000000E+001    0.000000E+000    3.000000E+001    0.000000E+000    

1.700000E+000    1.140960E-002    7.953326E+001    9.996669E-001    -4.720656E+000   9.996669E-001    -4.720656E+000   1.141451E-002    8.936316E+001    
! Gamma  1.063438E-001    9.662410E+001    0.000000E+000    0.000000E+000    
! Port Impedance  3.000000E+001    0.000000E+000    3.000000E+001    0.000000E+000    

1.800000E+000    1.207446E-002    7.922858E+001    9.996506E-001    -4.997192E+000   9.996506E-001    -4.997192E+000   1.210921E-002    8.912130E+001    
! Gamma  1.131255E-001    1.023132E+002    0.000000E+000    0.000000E+000    
! Port Impedance  3.000000E+001    0.000000E+000    3.000000E+001    0.000000E+000    

1.900000E+000    1.274442E-002    7.891302E+001    9.996338E-001    -5.273592E+000   9.996338E-001    -5.273592E+000   1.280269E-002    8.889707E+001    
! Gamma  1.197877E-001    1.080034E+002    0.000000E+000    0.000000E+000    
! Port Impedance  3.000000E+001    0.000000E+000    3.000000E+001    0.000000E+000    

2.000000E+000    1.341933E-002    7.858814E+001    9.996163E-001    -5.549849E+000   9.996163E-001    -5.549849E+000   1.349536E-002    8.868846E+001    
! Gamma  1.263404E-001    1.136945E+002    0.000000E+000    0.000000E+000    
! Port Impedance  3.000000E+001    0.000000E+000    3.000000E+001    0.000000E+000    

2.100000E+000    1.409908E-002    7.825529E+001    9.995981E-001    -5.825959E+000   9.995981E-001    -5.825959E+000   1.418762E-002    8.849371E+001    
! Gamma  1.327953E-001    1.193867E+002    0.000000E+000    0.000000E+000    
! Port Impedance  3.000000E+001    0.000000E+000    3.000000E+001    0.000000E+000    

2.200000E+000    1.478356E-002    7.791559E+001    9.995794E-001    -6.101917E+000   9.995794E-001    -6.101917E+000   1.487987E-002    8.831126E+001    
! Gamma  1.391645E-001    1.250800E+002    0.000000E+000    0.000000E+000    
! Port Impedance  3.000000E+001    0.000000E+000    3.000000E+001    0.000000E+000    

2.300000E+000    1.547266E-002    7.756998E+001    9.995600E-001    -6.377719E+000   9.995600E-001    -6.377719E+000   1.557248E-002    8.813972E+001    
! Gamma  1.454600E-001    1.307745E+002    0.000000E+000    0.000000E+000    
! Port Impedance  3.000000E+001    0.000000E+000    3.000000E+001    0.000000E+000    

2.400000E+000    1.616628E-002    7.721929E+001    9.995400E-001    -6.653361E+000   9.995400E-001    -6.653361E+000   1.626583E-002    8.797781E+001    
! Gamma  1.516938E-001    1.364701E+002    0.000000E+000    0.000000E+000    
! Port Impedance  3.000000E+001    0.000000E+000    3.000000E+001    0.000000E+000    

2.500000E+000    1.686431E-002    7.686419E+001    9.995194E-001    -6.928841E+000   9.995194E-001    -6.928841E+000   1.696026E-002    8.782435E+001    
! Gamma  1.578769E-001    1.421670E+002    0.000000E+000    0.000000E+000    
! Port Impedance  3.000000E+001    0.000000E+000    3.000000E+001    0.000000E+000    

2.600000E+000    1.756666E-002    7.650528E+001    9.994983E-001    -7.204156E+000   9.994983E-001    -7.204156E+000   1.765613E-002    8.767825E+001    
! Gamma  1.640200E-001    1.478651E+002    0.000000E+000    0.000000E+000    
! Port Impedance  3.000000E+001    0.000000E+000    3.000000E+001    0.000000E+000    

2.700000E+000    1.827321E-002    7.614304E+001    9.994765E-001    -7.479304E+000   9.994765E-001    -7.479304E+000   1.835375E-002    8.753848E+001    
! Gamma  1.701326E-001    1.535646E+002    0.000000E+000    0.000000E+000    
! Port Impedance  3.000000E+001    0.000000E+000    3.000000E+001    0.000000E+000    

2.800000E+000    1.898386E-002    7.577790E+001    9.994542E-001    -7.754284E+000   9.994542E-001    -7.754284E+000   1.905343E-002    8.740409E+001    
! Gamma  1.762234E-001    1.592653E+002    0.000000E+000    0.000000E+000    
! Port Impedance  3.000000E+001    0.000000E+000    3.000000E+001    0.000000E+000    

2.900000E+000    1.969850E-002    7.541022E+001    9.994313E-001    -8.029095E+000   9.994313E-001    -8.029095E+000   1.975546E-002    8.727418E+001    
! Gamma  1.823005E-001    1.649675E+002    0.000000E+000    0.000000E+000    
! Port Impedance  3.000000E+001    0.000000E+000    3.000000E+001    0.000000E+000    

3.000000E+000    2.041701E-002    7.504031E+001    9.994079E-001    -8.303737E+000   9.994079E-001    -8.303737E+000   2.046010E-002    8.714792E+001    
! Gamma  1.883706E-001    1.706710E+002    0.000000E+000    0.000000E+000    
! Port Impedance  3.000000E+001    0.000000E+000    3.000000E+001    0.000000E+000    

3.100000E+000    2.113927E-002    7.466842E+001    9.993839E-001    -8.578210E+000   9.993839E-001    -8.578210E+000   2.116758E-002    8.702452E+001    
! Gamma  1.944401E-001    1.763760E+002    0.000000E+000    0.000000E+000    
! Port Impedance  3.000000E+001    0.000000E+000    3.000000E+001    0.000000E+000    

3.200000E+000    2.186518E-002    7.429478E+001    9.993594E-001    -8.852515E+000   9.993594E-001    -8.852515E+000   2.187813E-002    8.690326E+001    
! Gamma  2.005142E-001    1.820825E+002    0.000000E+000    0.000000E+000    
! Port Impedance  3.000000E+001    0.000000E+000    3.000000E+001    0.000000E+000    

3.300000E+000    2.259461E-002    7.391956E+001    9.993344E-001    -9.126652E+000   9.993344E-001    -9.126652E+000   2.259193E-002    8.678348E+001    
! Gamma  2.065977E-001    1.877905E+002    0.000000E+000    0.000000E+000    
! Port Impedance  3.000000E+001    0.000000E+000    3.000000E+001    0.000000E+000    

3.400000E+000    2.332745E-002    7.354293E+001    9.993088E-001    -9.400623E+000   9.993088E-001    -9.400623E+000   2.330916E-002    8.666456E+001    
! Gamma  2.126946E-001    1.935000E+002    0.000000E+000    0.000000E+000    
! Port Impedance  3.000000E+001    0.000000E+000    3.000000E+001    0.000000E+000    

3.500000E+000    2.406357E-002    7.316502E+001    9.992827E-001    -9.674430E+000   9.992827E-001    -9.674430E+000   2.402993E-002    8.654595E+001    
! Gamma  2.188081E-001    1.992111E+002    0.000000E+000    0.000000E+000    
! Port Impedance  3.000000E+001    0.000000E+000    3.000000E+001    0.000000E+000    

3.600000E+000    2.480286E-002    7.278593E+001    9.992561E-001    -9.948074E+000   9.992561E-001    -9.948074E+000   2.475439E-002    8.642715E+001    
! Gamma  2.249410E-001    2.049238E+002    0.000000E+000    0.000000E+000    
! Port Impedance  3.000000E+001    0.000000E+000    3.000000E+001    0.000000E+000    

3.700000E+000    2.554519E-002    7.240576E+001    9.992290E-001    -1.022156E+001   9.992290E-001    -1.022156E+001   2.548260E-002    8.630772E+001    
! Gamma  2.310957E-001    2.106382E+002    0.000000E+000    0.000000E+000    
! Port Impedance  3.000000E+001    0.000000E+000    3.000000E+001    0.000000E+000    

3.800000E+000    2.629045E-002    7.202458E+001    9.992013E-001    -1.049489E+001   9.992013E-001    -1.049489E+001   2.621465E-002    8.618728E+001    
! Gamma  2.372739E-001    2.163542E+002    0.000000E+000    0.000000E+000    
! Port Impedance  3.000000E+001    0.000000E+000    3.000000E+001    0.000000E+000    

3.900000E+000    2.703852E-002    7.164245E+001    9.991732E-001    -1.076806E+001   9.991732E-001    -1.076806E+001   2.695057E-002    8.606547E+001    
! Gamma  2.434771E-001    2.220719E+002    0.000000E+000    0.000000E+000    
! Port Impedance  3.000000E+001    0.000000E+000    3.000000E+001    0.000000E+000    

4.000000E+000    2.778928E-002    7.125942E+001    9.991445E-001    -1.104108E+001   9.991445E-001    -1.104108E+001   2.769039E-002    8.594203E+001    
! Gamma  2.497062E-001    2.277914E+002    0.000000E+000    0.000000E+000    
! Port Impedance  3.000000E+001    0.000000E+000    3.000000E+001    0.000000E+000    

4.100000E+000    2.854263E-002    7.087553E+001    9.991154E-001    -1.131396E+001   9.991154E-001    -1.131396E+001   2.843411E-002    8.581671E+001    
! Gamma  2.559620E-001    2.335126E+002    0.000000E+000    0.000000E+000    
! Port Impedance  3.000000E+001    0.000000E+000    3.000000E+001    0.000000E+000    

4.200000E+000    2.929846E-002    7.049080E+001    9.990857E-001    -1.158669E+001   9.990857E-001    -1.158669E+001   2.918173E-002    8.568931E+001    
! Gamma  2.622448E-001    2.392355E+002    0.000000E+000    0.000000E+000    
! Port Impedance  3.000000E+001    0.000000E+000    3.000000E+001    0.000000E+000    

4.300000E+000    3.005666E-002    7.010527E+001    9.990555E-001    -1.185929E+001   9.990555E-001    -1.185929E+001   2.993323E-002    8.555971E+001    
! Gamma  2.685548E-001    2.449603E+002    0.000000E+000    0.000000E+000    
! Port Impedance  3.000000E+001    0.000000E+000    3.000000E+001    0.000000E+000    

4.400000E+000    3.081712E-002    6.971895E+001    9.990247E-001    -1.213175E+001   9.990247E-001    -1.213175E+001   3.068855E-002    8.542777E+001    
! Gamma  2.748919E-001    2.506869E+002    0.000000E+000    0.000000E+000    
! Port Impedance  3.000000E+001    0.000000E+000    3.000000E+001    0.000000E+000    

4.500000E+000    3.157974E-002    6.933186E+001    9.989935E-001    -1.240408E+001   9.989935E-001    -1.240408E+001   3.144764E-002    8.529344E+001    
! Gamma  2.812558E-001    2.564153E+002    0.000000E+000    0.000000E+000    
! Port Impedance  3.000000E+001    0.000000E+000    3.000000E+001    0.000000E+000    

4.600000E+000    3.234444E-002    6.894399E+001    9.989617E-001    -1.267629E+001   9.989617E-001    -1.267629E+001   3.221046E-002    8.515667E+001    
! Gamma  2.876461E-001    2.621457E+002    0.000000E+000    0.000000E+000    
! Port Impedance  3.000000E+001    0.000000E+000    3.000000E+001    0.000000E+000    

4.700000E+000    3.311111E-002    6.855537E+001    9.989294E-001    -1.294837E+001   9.989294E-001    -1.294837E+001   3.297692E-002    8.501747E+001    
! Gamma  2.940621E-001    2.678779E+002    0.000000E+000    0.000000E+000    
! Port Impedance  3.000000E+001    0.000000E+000    3.000000E+001    0.000000E+000    

4.800000E+000    3.387968E-002    6.816598E+001    9.988965E-001    -1.322034E+001   9.988965E-001    -1.322034E+001   3.374694E-002    8.487584E+001    
! Gamma  3.005031E-001    2.736120E+002    0.000000E+000    0.000000E+000    
! Port Impedance  3.000000E+001    0.000000E+000    3.000000E+001    0.000000E+000    

4.900000E+000    3.465005E-002    6.777584E+001    9.988631E-001    -1.349221E+001   9.988631E-001    -1.349221E+001   3.452045E-002    8.473185E+001    
! Gamma  3.069682E-001    2.793481E+002    0.000000E+000    0.000000E+000    
! Port Impedance  3.000000E+001    0.000000E+000    3.000000E+001    0.000000E+000    

5.000000E+000    3.542216E-002    6.738494E+001    9.988292E-001    -1.376396E+001   9.988292E-001    -1.376396E+001   3.529736E-002    8.458555E+001    
! Gamma  3.134567E-001    2.850861E+002    0.000000E+000    0.000000E+000    
! Port Impedance  3.000000E+001    0.000000E+000    3.000000E+001    0.000000E+000    

5.100000E+000    3.619593E-002    6.699329E+001    9.987946E-001    -1.403562E+001   9.987946E-001    -1.403562E+001   3.607757E-002    8.443702E+001    
! Gamma  3.199674E-001    2.908261E+002    0.000000E+000    0.000000E+000    
! Port Impedance  3.000000E+001    0.000000E+000    3.000000E+001    0.000000E+000    

5.200000E+000    3.697128E-002    6.660087E+001    9.987595E-001    -1.430719E+001   9.987595E-001    -1.430719E+001   3.686099E-002    8.428639E+001    
! Gamma  3.264993E-001    2.965681E+002    0.000000E+000    0.000000E+000    
! Port Impedance  3.000000E+001    0.000000E+000    3.000000E+001    0.000000E+000    

5.300000E+000    3.774816E-002    6.620770E+001    9.987239E-001    -1.457867E+001   9.987239E-001    -1.457867E+001   3.764751E-002    8.413376E+001    
! Gamma  3.330513E-001    3.023121E+002    0.000000E+000    0.000000E+000    
! Port Impedance  3.000000E+001    0.000000E+000    3.000000E+001    0.000000E+000    

5.400000E+000    3.852651E-002    6.581376E+001    9.986876E-001    -1.485007E+001   9.986876E-001    -1.485007E+001   3.843706E-002    8.397925E+001    
! Gamma  3.396222E-001    3.080581E+002    0.000000E+000    0.000000E+000    
! Port Impedance  3.000000E+001    0.000000E+000    3.000000E+001    0.000000E+000    

5.500000E+000    3.930627E-002    6.541907E+001    9.986508E-001    -1.512139E+001   9.986508E-001    -1.512139E+001   3.922952E-002    8.382302E+001    
! Gamma  3.462111E-001    3.138061E+002    0.000000E+000    0.000000E+000    
! Port Impedance  3.000000E+001    0.000000E+000    3.000000E+001    0.000000E+000    

5.600000E+000    4.008740E-002    6.502362E+001    9.986133E-001    -1.539264E+001   9.986133E-001    -1.539264E+001   4.002479E-002    8.366520E+001    
! Gamma  3.528166E-001    3.195562E+002    0.000000E+000    0.000000E+000    
! Port Impedance  3.000000E+001    0.000000E+000    3.000000E+001    0.000000E+000    

5.700000E+000    4.086985E-002    6.462741E+001    9.985753E-001    -1.566382E+001   9.985753E-001    -1.566382E+001   4.082279E-002    8.350595E+001    
! Gamma  3.594376E-001    3.253084E+002    0.000000E+000    0.000000E+000    
! Port Impedance  3.000000E+001    0.000000E+000    3.000000E+001    0.000000E+000    

5.800000E+000    4.165359E-002    6.423045E+001    9.985366E-001    -1.593495E+001   9.985366E-001    -1.593495E+001   4.162340E-002    8.334542E+001    
! Gamma  3.660731E-001    3.310627E+002    0.000000E+000    0.000000E+000    
! Port Impedance  3.000000E+001    0.000000E+000    3.000000E+001    0.000000E+000    

5.900000E+000    4.243858E-002    6.383275E+001    9.984973E-001    -1.620602E+001   9.984973E-001    -1.620602E+001   4.242653E-002    8.318377E+001    
! Gamma  3.727217E-001    3.368190E+002    0.000000E+000    0.000000E+000    
! Port Impedance  3.000000E+001    0.000000E+000    3.000000E+001    0.000000E+000    

6.000000E+000    4.322479E-002    6.343430E+001    9.984573E-001    -1.647705E+001   9.984573E-001    -1.647705E+001   4.323208E-002    8.302115E+001    
! Gamma  3.793825E-001    3.425774E+002    0.000000E+000    0.000000E+000    
! Port Impedance  3.000000E+001    0.000000E+000    3.000000E+001    0.000000E+000    

6.100000E+000    4.401220E-002    6.303513E+001    9.984167E-001    -1.674803E+001   9.984167E-001    -1.674803E+001   4.403996E-002    8.285772E+001    
! Gamma  3.860543E-001    3.483380E+002    0.000000E+000    0.000000E+000    
! Port Impedance  3.000000E+001    0.000000E+000    3.000000E+001    0.000000E+000    

