! Touchstone file from project 
# GHZ S MA R 50.000000
! Modal data exported
! Port[1] = IF_output:1
! Port[2] = RF_input:1
1.000000E-001    1.196056E-003    -5.951360E+001   9.997928E-001    -3.889153E-001   9.997928E-001    -3.889153E-001   1.049129E-003    -1.023195E+002   
! Gamma  5.665364E-003    5.281986E+000    0.000000E+000    0.000000E+000    
! Port Impedance  5.000000E+001    0.000000E+000    5.000000E+001    0.000000E+000    

2.000000E-001    2.190099E-003    -8.680215E+001   9.996551E-001    -7.752334E-001   9.996551E-001    -7.752334E-001   2.435009E-003    -7.776908E+001   
! Gamma  2.402836E-002    1.053337E+001    0.000000E+000    0.000000E+000    
! Port Impedance  5.000000E+001    0.000000E+000    5.000000E+001    0.000000E+000    

3.000000E-001    3.390447E-003    -9.375411E+001   9.995094E-001    -1.155700E+000   9.995094E-001    -1.155700E+000   3.851475E-003    -7.641724E+001   
! Gamma  4.315846E-002    1.580497E+001    0.000000E+000    0.000000E+000    
! Port Impedance  5.000000E+001    0.000000E+000    5.000000E+001    0.000000E+000    

4.000000E-001    4.607081E-003    -9.519986E+001   9.994032E-001    -1.533562E+000   9.994032E-001    -1.533562E+000   5.159488E-003    -7.817104E+001   
! Gamma  5.872952E-002    2.108557E+001    0.000000E+000    0.000000E+000    
! Port Impedance  5.000000E+001    0.000000E+000    5.000000E+001    0.000000E+000    

5.000000E-001    5.821167E-003    -9.524159E+001   9.993281E-001    -1.910805E+000   9.993281E-001    -1.910805E+000   6.403954E-003    -8.020727E+001   
! Gamma  7.043025E-002    2.637018E+001    0.000000E+000    0.000000E+000    
! Port Impedance  5.000000E+001    0.000000E+000    5.000000E+001    0.000000E+000    

6.000000E-001    7.033939E-003    -9.500531E+001   9.992714E-001    -2.288081E+000   9.992714E-001    -2.288081E+000   7.613545E-003    -8.200336E+001   
! Gamma  7.916616E-002    3.165651E+001    0.000000E+000    0.000000E+000    
! Port Impedance  5.000000E+001    0.000000E+000    5.000000E+001    0.000000E+000    

7.000000E-001    8.245540E-003    -9.481371E+001   9.992247E-001    -2.665549E+000   9.992247E-001    -2.665549E+000   8.802811E-003    -8.349360E+001   
! Gamma  8.586510E-002    3.694358E+001    0.000000E+000    0.000000E+000    
! Port Impedance  5.000000E+001    0.000000E+000    5.000000E+001    0.000000E+000    

8.000000E-001    9.454898E-003    -9.474899E+001   9.991833E-001    -3.043217E+000   9.991833E-001    -3.043217E+000   9.979750E-003    -8.471418E+001   
! Gamma  9.121666E-002    4.223106E+001    0.000000E+000    0.000000E+000    
! Port Impedance  5.000000E+001    0.000000E+000    5.000000E+001    0.000000E+000    

9.000000E-001    1.066088E-002    -9.481790E+001   9.991445E-001    -3.421051E+000   9.991445E-001    -3.421051E+000   1.114921E-002    -8.571753E+001   
! Gamma  9.569008E-002    4.751888E+001    0.000000E+000    0.000000E+000    
! Port Impedance  5.000000E+001    0.000000E+000    5.000000E+001    0.000000E+000    

1.000000E+000    1.186280E-002    -9.500479E+001   9.991065E-001    -3.799013E+000   9.991065E-001    -3.799013E+000   1.231433E-002    -8.655091E+001   
! Gamma  9.959777E-002    5.280709E+001    0.000000E+000    0.000000E+000    
! Port Impedance  5.000000E+001    0.000000E+000    5.000000E+001    0.000000E+000    

1.100000E+000    1.306043E-002    -9.528947E+001   9.990684E-001    -4.177066E+000   9.990684E-001    -4.177066E+000   1.347715E-002    -8.725229E+001   
! Gamma  1.031482E-001    5.809575E+001    0.000000E+000    0.000000E+000    
! Port Impedance  5.000000E+001    0.000000E+000    5.000000E+001    0.000000E+000    

1.200000E+000    1.425395E-002    -9.565302E+001   9.990296E-001    -4.555180E+000   9.990296E-001    -4.555180E+000   1.463906E-002    -8.785095E+001   
! Gamma  1.064824E-001    6.338498E+001    0.000000E+000    0.000000E+000    
! Port Impedance  5.000000E+001    0.000000E+000    5.000000E+001    0.000000E+000    

1.300000E+000    1.544373E-002    -9.607941E+001   9.989896E-001    -4.933327E+000   9.989896E-001    -4.933327E+000   1.580094E-002    -8.836913E+001   
! Gamma  1.096969E-001    6.867489E+001    0.000000E+000    0.000000E+000    
! Port Impedance  5.000000E+001    0.000000E+000    5.000000E+001    0.000000E+000    

1.400000E+000    1.663028E-002    -9.655560E+001   9.989482E-001    -5.311487E+000   9.989482E-001    -5.311487E+000   1.696337E-002    -8.882369E+001   
! Gamma  1.128593E-001    7.396556E+001    0.000000E+000    0.000000E+000    
! Port Impedance  5.000000E+001    0.000000E+000    5.000000E+001    0.000000E+000    

1.500000E+000    1.781412E-002    -9.707120E+001   9.989052E-001    -5.689640E+000   9.989052E-001    -5.689640E+000   1.812668E-002    -8.922744E+001   
! Gamma  1.160173E-001    7.925711E+001    0.000000E+000    0.000000E+000    
! Port Impedance  5.000000E+001    0.000000E+000    5.000000E+001    0.000000E+000    

1.600000E+000    1.899574E-002    -9.761797E+001   9.988606E-001    -6.067770E+000   9.988606E-001    -6.067770E+000   1.929108E-002    -8.959018E+001   
! Gamma  1.192049E-001    8.454962E+001    0.000000E+000    0.000000E+000    
! Port Impedance  5.000000E+001    0.000000E+000    5.000000E+001    0.000000E+000    

1.700000E+000    2.017560E-002    -9.818945E+001   9.988143E-001    -6.445863E+000   9.988143E-001    -6.445863E+000   2.045665E-002    -8.991944E+001   
! Gamma  1.224469E-001    8.984319E+001    0.000000E+000    0.000000E+000    
! Port Impedance  5.000000E+001    0.000000E+000    5.000000E+001    0.000000E+000    

1.800000E+000    2.135404E-002    -9.878054E+001   9.987662E-001    -6.823905E+000   9.987662E-001    -6.823905E+000   2.162339E-002    -9.022110E+001   
! Gamma  1.257611E-001    9.513791E+001    0.000000E+000    0.000000E+000    
! Port Impedance  5.000000E+001    0.000000E+000    5.000000E+001    0.000000E+000    

1.900000E+000    2.253138E-002    -9.938720E+001   9.987163E-001    -7.201886E+000   9.987163E-001    -7.201886E+000   2.279128E-002    -9.049974E+001   
! Gamma  1.291608E-001    1.004339E+002    0.000000E+000    0.000000E+000    
! Port Impedance  5.000000E+001    0.000000E+000    5.000000E+001    0.000000E+000    

2.000000E+000    2.370785E-002    -1.000063E+002   9.986647E-001    -7.579794E+000   9.986647E-001    -7.579794E+000   2.396024E-002    -9.075903E+001   
! Gamma  1.326552E-001    1.057311E+002    0.000000E+000    0.000000E+000    
! Port Impedance  5.000000E+001    0.000000E+000    5.000000E+001    0.000000E+000    

2.100000E+000    2.488359E-002    -1.006352E+002   9.986113E-001    -7.957620E+000   9.986113E-001    -7.957620E+000   2.513018E-002    -9.100187E+001   
! Gamma  1.362511E-001    1.110298E+002    0.000000E+000    0.000000E+000    
! Port Impedance  5.000000E+001    0.000000E+000    5.000000E+001    0.000000E+000    

2.200000E+000    2.605873E-002    -1.012721E+002   9.985562E-001    -8.335355E+000   9.985562E-001    -8.335355E+000   2.630098E-002    -9.123062E+001   
! Gamma  1.399533E-001    1.163299E+002    0.000000E+000    0.000000E+000    
! Port Impedance  5.000000E+001    0.000000E+000    5.000000E+001    0.000000E+000    

2.300000E+000    2.723333E-002    -1.019152E+002   9.984994E-001    -8.712990E+000   9.984994E-001    -8.712990E+000   2.747251E-002    -9.144718E+001   
! Gamma  1.437650E-001    1.216316E+002    0.000000E+000    0.000000E+000    
! Port Impedance  5.000000E+001    0.000000E+000    5.000000E+001    0.000000E+000    

2.400000E+000    2.840740E-002    -1.025634E+002   9.984410E-001    -9.090517E+000   9.984410E-001    -9.090517E+000   2.864465E-002    -9.165315E+001   
! Gamma  1.476880E-001    1.269350E+002    0.000000E+000    0.000000E+000    
! Port Impedance  5.000000E+001    0.000000E+000    5.000000E+001    0.000000E+000    

2.500000E+000    2.958093E-002    -1.032155E+002   9.983809E-001    -9.467928E+000   9.983809E-001    -9.467928E+000   2.981727E-002    -9.184983E+001   
! Gamma  1.517235E-001    1.322400E+002    0.000000E+000    0.000000E+000    
! Port Impedance  5.000000E+001    0.000000E+000    5.000000E+001    0.000000E+000    

2.600000E+000    3.075388E-002    -1.038707E+002   9.983192E-001    -9.845215E+000   9.983192E-001    -9.845215E+000   3.099021E-002    -9.203830E+001   
! Gamma  1.558715E-001    1.375468E+002    0.000000E+000    0.000000E+000    
! Port Impedance  5.000000E+001    0.000000E+000    5.000000E+001    0.000000E+000    

2.700000E+000    3.192619E-002    -1.045285E+002   9.982560E-001    -1.022237E+001   9.982560E-001    -1.022237E+001   3.216336E-002    -9.221950E+001   
! Gamma  1.601317E-001    1.428555E+002    0.000000E+000    0.000000E+000    
! Port Impedance  5.000000E+001    0.000000E+000    5.000000E+001    0.000000E+000    

2.800000E+000    3.309777E-002    -1.051881E+002   9.981913E-001    -1.059939E+001   9.981913E-001    -1.059939E+001   3.333657E-002    -9.239421E+001   
! Gamma  1.645033E-001    1.481661E+002    0.000000E+000    0.000000E+000    
! Port Impedance  5.000000E+001    0.000000E+000    5.000000E+001    0.000000E+000    

2.900000E+000    3.426852E-002    -1.058492E+002   9.981252E-001    -1.097627E+001   9.981252E-001    -1.097627E+001   3.450970E-002    -9.256310E+001   
! Gamma  1.689849E-001    1.534788E+002    0.000000E+000    0.000000E+000    
! Port Impedance  5.000000E+001    0.000000E+000    5.000000E+001    0.000000E+000    

3.000000E+000    3.543834E-002    -1.065114E+002   9.980576E-001    -1.135299E+001   9.980576E-001    -1.135299E+001   3.568261E-002    -9.272674E+001   
! Gamma  1.735748E-001    1.587935E+002    0.000000E+000    0.000000E+000    
! Port Impedance  5.000000E+001    0.000000E+000    5.000000E+001    0.000000E+000    

3.100000E+000    3.660711E-002    -1.071743E+002   9.979886E-001    -1.172957E+001   9.979886E-001    -1.172957E+001   3.685518E-002    -9.288563E+001   
! Gamma  1.782713E-001    1.641103E+002    0.000000E+000    0.000000E+000    
! Port Impedance  5.000000E+001    0.000000E+000    5.000000E+001    0.000000E+000    

3.200000E+000    3.777471E-002    -1.078378E+002   9.979183E-001    -1.210598E+001   9.979183E-001    -1.210598E+001   3.802727E-002    -9.304021E+001   
! Gamma  1.830722E-001    1.694294E+002    0.000000E+000    0.000000E+000    
! Port Impedance  5.000000E+001    0.000000E+000    5.000000E+001    0.000000E+000    

3.300000E+000    3.894102E-002    -1.085016E+002   9.978467E-001    -1.248222E+001   9.978467E-001    -1.248222E+001   3.919875E-002    -9.319087E+001   
! Gamma  1.879751E-001    1.747507E+002    0.000000E+000    0.000000E+000    
! Port Impedance  5.000000E+001    0.000000E+000    5.000000E+001    0.000000E+000    

3.400000E+000    4.010590E-002    -1.091656E+002   9.977739E-001    -1.285829E+001   9.977739E-001    -1.285829E+001   4.036949E-002    -9.333794E+001   
! Gamma  1.929775E-001    1.800744E+002    0.000000E+000    0.000000E+000    
! Port Impedance  5.000000E+001    0.000000E+000    5.000000E+001    0.000000E+000    

3.500000E+000    4.126923E-002    -1.098295E+002   9.976998E-001    -1.323418E+001   9.976998E-001    -1.323418E+001   4.153938E-002    -9.348172E+001   
! Gamma  1.980769E-001    1.854005E+002    0.000000E+000    0.000000E+000    
! Port Impedance  5.000000E+001    0.000000E+000    5.000000E+001    0.000000E+000    

3.600000E+000    4.243089E-002    -1.104933E+002   9.976246E-001    -1.360990E+001   9.976246E-001    -1.360990E+001   4.270830E-002    -9.362246E+001   
! Gamma  2.032706E-001    1.907291E+002    0.000000E+000    0.000000E+000    
! Port Impedance  5.000000E+001    0.000000E+000    5.000000E+001    0.000000E+000    

3.700000E+000    4.359074E-002    -1.111568E+002   9.975482E-001    -1.398543E+001   9.975482E-001    -1.398543E+001   4.387611E-002    -9.376041E+001   
! Gamma  2.085556E-001    1.960603E+002    0.000000E+000    0.000000E+000    
! Port Impedance  5.000000E+001    0.000000E+000    5.000000E+001    0.000000E+000    

3.800000E+000    4.474867E-002    -1.118200E+002   9.974708E-001    -1.436077E+001   9.974708E-001    -1.436077E+001   4.504273E-002    -9.389578E+001   
! Gamma  2.139292E-001    2.013941E+002    0.000000E+000    0.000000E+000    
! Port Impedance  5.000000E+001    0.000000E+000    5.000000E+001    0.000000E+000    

3.900000E+000    4.590455E-002    -1.124828E+002   9.973923E-001    -1.473591E+001   9.973923E-001    -1.473591E+001   4.620802E-002    -9.402875E+001   
! Gamma  2.193883E-001    2.067306E+002    0.000000E+000    0.000000E+000    
! Port Impedance  5.000000E+001    0.000000E+000    5.000000E+001    0.000000E+000    

4.000000E+000    4.705827E-002    -1.131452E+002   9.973128E-001    -1.511086E+001   9.973128E-001    -1.511086E+001   4.737188E-002    -9.415950E+001   
! Gamma  2.249301E-001    2.120699E+002    0.000000E+000    0.000000E+000    
! Port Impedance  5.000000E+001    0.000000E+000    5.000000E+001    0.000000E+000    

4.100000E+000    4.820972E-002    -1.138070E+002   9.972323E-001    -1.548562E+001   9.972323E-001    -1.548562E+001   4.853422E-002    -9.428817E+001   
! Gamma  2.305514E-001    2.174120E+002    0.000000E+000    0.000000E+000    
! Port Impedance  5.000000E+001    0.000000E+000    5.000000E+001    0.000000E+000    

4.200000E+000    4.935879E-002    -1.144682E+002   9.971509E-001    -1.586017E+001   9.971509E-001    -1.586017E+001   4.969493E-002    -9.441490E+001   
! Gamma  2.362494E-001    2.227569E+002    0.000000E+000    0.000000E+000    
! Port Impedance  5.000000E+001    0.000000E+000    5.000000E+001    0.000000E+000    

4.300000E+000    5.050538E-002    -1.151289E+002   9.970686E-001    -1.623451E+001   9.970686E-001    -1.623451E+001   5.085390E-002    -9.453981E+001   
! Gamma  2.420208E-001    2.281048E+002    0.000000E+000    0.000000E+000    
! Port Impedance  5.000000E+001    0.000000E+000    5.000000E+001    0.000000E+000    

4.400000E+000    5.164938E-002    -1.157889E+002   9.969854E-001    -1.660865E+001   9.969854E-001    -1.660865E+001   5.201106E-002    -9.466302E+001   
! Gamma  2.478627E-001    2.334558E+002    0.000000E+000    0.000000E+000    
! Port Impedance  5.000000E+001    0.000000E+000    5.000000E+001    0.000000E+000    

4.500000E+000    5.279071E-002    -1.164483E+002   9.969015E-001    -1.698259E+001   9.969015E-001    -1.698259E+001   5.316630E-002    -9.478462E+001   
! Gamma  2.537720E-001    2.388098E+002    0.000000E+000    0.000000E+000    
! Port Impedance  5.000000E+001    0.000000E+000    5.000000E+001    0.000000E+000    

4.600000E+000    5.392929E-002    -1.171071E+002   9.968167E-001    -1.735631E+001   9.968167E-001    -1.735631E+001   5.431955E-002    -9.490471E+001   
! Gamma  2.597457E-001    2.441669E+002    0.000000E+000    0.000000E+000    
! Port Impedance  5.000000E+001    0.000000E+000    5.000000E+001    0.000000E+000    

4.700000E+000    5.506502E-002    -1.177652E+002   9.967312E-001    -1.772982E+001   9.967312E-001    -1.772982E+001   5.547070E-002    -9.502336E+001   
! Gamma  2.657808E-001    2.495273E+002    0.000000E+000    0.000000E+000    
! Port Impedance  5.000000E+001    0.000000E+000    5.000000E+001    0.000000E+000    

4.800000E+000    5.619785E-002    -1.184227E+002   9.966451E-001    -1.810313E+001   9.966451E-001    -1.810313E+001   5.661970E-002    -9.514064E+001   
! Gamma  2.718743E-001    2.548909E+002    0.000000E+000    0.000000E+000    
! Port Impedance  5.000000E+001    0.000000E+000    5.000000E+001    0.000000E+000    

4.900000E+000    5.732769E-002    -1.190795E+002   9.965582E-001    -1.847622E+001   9.965582E-001    -1.847622E+001   5.776644E-002    -9.525664E+001   
! Gamma  2.780233E-001    2.602578E+002    0.000000E+000    0.000000E+000    
! Port Impedance  5.000000E+001    0.000000E+000    5.000000E+001    0.000000E+000    

5.000000E+000    5.845448E-002    -1.197356E+002   9.964707E-001    -1.884910E+001   9.964707E-001    -1.884910E+001   5.891087E-002    -9.537139E+001   
! Gamma  2.842248E-001    2.656282E+002    0.000000E+000    0.000000E+000    
! Port Impedance  5.000000E+001    0.000000E+000    5.000000E+001    0.000000E+000    

5.100000E+000    5.957817E-002    -1.203911E+002   9.963826E-001    -1.922176E+001   9.963826E-001    -1.922176E+001   6.005291E-002    -9.548496E+001   
! Gamma  2.904759E-001    2.710019E+002    0.000000E+000    0.000000E+000    
! Port Impedance  5.000000E+001    0.000000E+000    5.000000E+001    0.000000E+000    

5.200000E+000    6.069870E-002    -1.210460E+002   9.962939E-001    -1.959422E+001   9.962939E-001    -1.959422E+001   6.119249E-002    -9.559739E+001   
! Gamma  2.967740E-001    2.763792E+002    0.000000E+000    0.000000E+000    
! Port Impedance  5.000000E+001    0.000000E+000    5.000000E+001    0.000000E+000    

5.300000E+000    6.181603E-002    -1.217003E+002   9.962047E-001    -1.996647E+001   9.962047E-001    -1.996647E+001   6.232955E-002    -9.570872E+001   
! Gamma  3.031160E-001    2.817600E+002    0.000000E+000    0.000000E+000    
! Port Impedance  5.000000E+001    0.000000E+000    5.000000E+001    0.000000E+000    

5.400000E+000    6.293011E-002    -1.223541E+002   9.961150E-001    -2.033851E+001   9.961150E-001    -2.033851E+001   6.346401E-002    -9.581900E+001   
! Gamma  3.094995E-001    2.871444E+002    0.000000E+000    0.000000E+000    
! Port Impedance  5.000000E+001    0.000000E+000    5.000000E+001    0.000000E+000    

5.500000E+000    6.404092E-002    -1.230072E+002   9.960248E-001    -2.071034E+001   9.960248E-001    -2.071034E+001   6.459584E-002    -9.592825E+001   
! Gamma  3.159216E-001    2.925325E+002    0.000000E+000    0.000000E+000    
! Port Impedance  5.000000E+001    0.000000E+000    5.000000E+001    0.000000E+000    

5.600000E+000    6.514842E-002    -1.236599E+002   9.959341E-001    -2.108196E+001   9.959341E-001    -2.108196E+001   6.572496E-002    -9.603650E+001   
! Gamma  3.223799E-001    2.979243E+002    0.000000E+000    0.000000E+000    
! Port Impedance  5.000000E+001    0.000000E+000    5.000000E+001    0.000000E+000    

5.700000E+000    6.625259E-002    -1.243120E+002   9.958430E-001    -2.145339E+001   9.958430E-001    -2.145339E+001   6.685133E-002    -9.614379E+001   
! Gamma  3.288718E-001    3.033199E+002    0.000000E+000    0.000000E+000    
! Port Impedance  5.000000E+001    0.000000E+000    5.000000E+001    0.000000E+000    

5.800000E+000    6.735341E-002    -1.249637E+002   9.957514E-001    -2.182461E+001   9.957514E-001    -2.182461E+001   6.797490E-002    -9.625012E+001   
! Gamma  3.353947E-001    3.087194E+002    0.000000E+000    0.000000E+000    
! Port Impedance  5.000000E+001    0.000000E+000    5.000000E+001    0.000000E+000    

5.900000E+000    6.845087E-002    -1.256149E+002   9.956595E-001    -2.219563E+001   9.956595E-001    -2.219563E+001   6.909562E-002    -9.635552E+001   
! Gamma  3.419464E-001    3.141227E+002    0.000000E+000    0.000000E+000    
! Port Impedance  5.000000E+001    0.000000E+000    5.000000E+001    0.000000E+000    

6.000000E+000    6.954495E-002    -1.262658E+002   9.955671E-001    -2.256646E+001   9.955671E-001    -2.256646E+001   7.021344E-002    -9.646001E+001   
! Gamma  3.485246E-001    3.195300E+002    0.000000E+000    0.000000E+000    
! Port Impedance  5.000000E+001    0.000000E+000    5.000000E+001    0.000000E+000    

6.100000E+000    7.063566E-002    -1.269163E+002   9.954744E-001    -2.293709E+001   9.954744E-001    -2.293709E+001   7.132834E-002    -9.656360E+001   
! Gamma  3.551269E-001    3.249412E+002    0.000000E+000    0.000000E+000    
! Port Impedance  5.000000E+001    0.000000E+000    5.000000E+001    0.000000E+000    

6.200000E+000    7.172298E-002    -1.275665E+002   9.953813E-001    -2.330754E+001   9.953813E-001    -2.330754E+001   7.244027E-002    -9.666630E+001   
! Gamma  3.617513E-001    3.303565E+002    0.000000E+000    0.000000E+000    
! Port Impedance  5.000000E+001    0.000000E+000    5.000000E+001    0.000000E+000    

