! Touchstone file from project 
# GHZ S MA R 50.000000
! Modal data exported
! Port[1] = Input:1
! Port[2] = LumpPort1:1
0.000000E+000    1.000000E+000    1.800000E+002    0.000000E+000    0.000000E+000    0.000000E+000    0.000000E+000    1.000000E+000    0.000000E+000    
! Gamma  9.817477E+003    0.000000E+000    0.000000E+000    0.000000E+000    
! Port Impedance  5.000000E+001    0.000000E+000    5.000000E+001    0.000000E+000    

1.000000E+000    1.000000E+000    1.788630E+002    9.507316E-008    1.712805E+002    9.507306E-008    1.712805E+002    1.000000E+000    -1.630205E+001   
! Gamma  9.817455E+003    0.000000E+000    0.000000E+000    0.000000E+000    
! Port Impedance  5.000000E+001    0.000000E+000    5.000000E+001    0.000000E+000    

2.000000E+000    1.000000E+000    1.777262E+002    3.258736E-007    1.666428E+002    3.258734E-007    1.666428E+002    9.999998E-001    -3.200959E+001   
! Gamma  9.817388E+003    0.000000E+000    0.000000E+000    0.000000E+000    
! Port Impedance  5.000000E+001    0.000000E+000    5.000000E+001    0.000000E+000    

3.000000E+000    1.000000E+000    1.765898E+002    7.214645E-007    1.609267E+002    7.214643E-007    1.609267E+002    9.999995E-001    -4.665142E+001   
! Gamma  9.817276E+003    0.000000E+000    0.000000E+000    0.000000E+000    
! Port Impedance  5.000000E+001    0.000000E+000    5.000000E+001    0.000000E+000    

4.000000E+000    1.000000E+000    1.754541E+002    1.264131E-006    1.538846E+002    1.264130E-006    1.538846E+002    9.999992E-001    -5.994530E+001   
! Gamma  9.817119E+003    0.000000E+000    0.000000E+000    0.000000E+000    
! Port Impedance  5.000000E+001    0.000000E+000    5.000000E+001    0.000000E+000    

5.000000E+000    1.000000E+000    1.743191E+002    1.915113E-006    1.466639E+002    1.915113E-006    1.466640E+002    9.999990E-001    -7.179295E+001   
! Gamma  9.816918E+003    0.000000E+000    0.000000E+000    0.000000E+000    
! Port Impedance  5.000000E+001    0.000000E+000    5.000000E+001    0.000000E+000    

6.000000E+000    1.000000E+000    1.731853E+002    2.635135E-006    1.398565E+002    2.635135E-006    1.398565E+002    9.999988E-001    -8.223180E+001   
! Gamma  9.816672E+003    0.000000E+000    0.000000E+000    0.000000E+000    
! Port Impedance  5.000000E+001    0.000000E+000    5.000000E+001    0.000000E+000    

7.000000E+000    1.000000E+000    1.720526E+002    3.393969E-006    1.336905E+002    3.393969E-006    1.336905E+002    9.999988E-001    -9.137827E+001   
! Gamma  9.816381E+003    0.000000E+000    0.000000E+000    0.000000E+000    
! Port Impedance  5.000000E+001    0.000000E+000    5.000000E+001    0.000000E+000    

8.000000E+000    1.000000E+000    1.709214E+002    4.172114E-006    1.282113E+002    4.172113E-006    1.282113E+002    9.999988E-001    -9.938260E+001   
! Gamma  9.816045E+003    0.000000E+000    0.000000E+000    0.000000E+000    
! Port Impedance  5.000000E+001    0.000000E+000    5.000000E+001    0.000000E+000    

9.000000E+000    1.000000E+000    1.697918E+002    4.958900E-006    1.233811E+002    4.958900E-006    1.233811E+002    9.999989E-001    -1.064000E+002   
! Gamma  9.815665E+003    0.000000E+000    0.000000E+000    0.000000E+000    
! Port Impedance  5.000000E+001    0.000000E+000    5.000000E+001    0.000000E+000    

1.000000E+001    1.000000E+000    1.686641E+002    5.749777E-006    1.191290E+002    5.749777E-006    1.191290E+002    9.999991E-001    -1.125755E+002   
! Gamma  9.815240E+003    0.000000E+000    0.000000E+000    0.000000E+000    
! Port Impedance  5.000000E+001    0.000000E+000    5.000000E+001    0.000000E+000    

1.100000E+001    1.000000E+000    1.675385E+002    6.543985E-006    1.153760E+002    6.543984E-006    1.153760E+002    9.999993E-001    -1.180375E+002   
! Gamma  9.814770E+003    0.000000E+000    0.000000E+000    0.000000E+000    
! Port Impedance  5.000000E+001    0.000000E+000    5.000000E+001    0.000000E+000    

1.200000E+001    1.000000E+000    1.664150E+002    7.342900E-006    1.120462E+002    7.342900E-006    1.120462E+002    9.999996E-001    -1.228962E+002   
! Gamma  9.814255E+003    0.000000E+000    0.000000E+000    0.000000E+000    
! Port Impedance  5.000000E+001    0.000000E+000    5.000000E+001    0.000000E+000    

1.300000E+001    1.000000E+000    1.652940E+002    8.148975E-006    1.090715E+002    8.148975E-006    1.090715E+002    9.999999E-001    -1.272448E+002   
! Gamma  9.813696E+003    0.000000E+000    0.000000E+000    0.000000E+000    
! Port Impedance  5.000000E+001    0.000000E+000    5.000000E+001    0.000000E+000    

1.400000E+001    1.000000E+000    1.641756E+002    8.965110E-006    1.063930E+002    8.965110E-006    1.063930E+002    1.000000E+000    -1.311615E+002   
! Gamma  9.813092E+003    0.000000E+000    0.000000E+000    0.000000E+000    
! Port Impedance  5.000000E+001    0.000000E+000    5.000000E+001    0.000000E+000    

1.500000E+001    1.000000E+000    1.630601E+002    9.794300E-006    1.039607E+002    9.794300E-006    1.039607E+002    1.000001E+000    -1.347118E+002   
! Gamma  9.812442E+003    0.000000E+000    0.000000E+000    0.000000E+000    
! Port Impedance  5.000000E+001    0.000000E+000    5.000000E+001    0.000000E+000    

1.600000E+001    1.000000E+000    1.619475E+002    1.063946E-005    1.017325E+002    1.063946E-005    1.017325E+002    1.000001E+000    -1.379506E+002   
! Gamma  9.811749E+003    0.000000E+000    0.000000E+000    0.000000E+000    
! Port Impedance  5.000000E+001    0.000000E+000    5.000000E+001    0.000000E+000    

1.700000E+001    1.000000E+000    1.608381E+002    1.150337E-005    9.967343E+001    1.150337E-005    9.967343E+001    1.000001E+000    -1.409239E+002   
! Gamma  9.811010E+003    0.000000E+000    0.000000E+000    0.000000E+000    
! Port Impedance  5.000000E+001    0.000000E+000    5.000000E+001    0.000000E+000    

1.800000E+001    1.000000E+000    1.597320E+002    1.238861E-005    9.775406E+001    1.238861E-005    9.775406E+001    1.000001E+000    -1.436709E+002   
! Gamma  9.810226E+003    0.000000E+000    0.000000E+000    0.000000E+000    
! Port Impedance  5.000000E+001    0.000000E+000    5.000000E+001    0.000000E+000    

1.900000E+001    1.000000E+000    1.586295E+002    1.329766E-005    9.594990E+001    1.329766E-005    9.594990E+001    1.000001E+000    -1.462250E+002   
! Gamma  9.809398E+003    0.000000E+000    0.000000E+000    0.000000E+000    
! Port Impedance  5.000000E+001    0.000000E+000    5.000000E+001    0.000000E+000    

2.000000E+001    1.000000E+000    1.575307E+002    1.423284E-005    9.424032E+001    1.423284E-005    9.424032E+001    1.000001E+000    -1.486153E+002   
! Gamma  9.808525E+003    0.000000E+000    0.000000E+000    0.000000E+000    
! Port Impedance  5.000000E+001    0.000000E+000    5.000000E+001    0.000000E+000    

2.100000E+001    1.000000E+000    1.564357E+002    1.519645E-005    9.260784E+001    1.519645E-005    9.260784E+001    1.000001E+000    -1.508671E+002   
! Gamma  9.807607E+003    0.000000E+000    0.000000E+000    0.000000E+000    
! Port Impedance  5.000000E+001    0.000000E+000    5.000000E+001    0.000000E+000    

2.200000E+001    1.000000E+000    1.553448E+002    1.619074E-005    9.103742E+001    1.619074E-005    9.103742E+001    1.000001E+000    -1.530032E+002   
! Gamma  9.806644E+003    0.000000E+000    0.000000E+000    0.000000E+000    
! Port Impedance  5.000000E+001    0.000000E+000    5.000000E+001    0.000000E+000    

2.300000E+001    1.000000E+000    1.542580E+002    1.721798E-005    8.951589E+001    1.721798E-005    8.951589E+001    1.000001E+000    -1.550444E+002   
! Gamma  9.805636E+003    0.000000E+000    0.000000E+000    0.000000E+000    
! Port Impedance  5.000000E+001    0.000000E+000    5.000000E+001    0.000000E+000    

2.400000E+001    1.000000E+000    1.531756E+002    1.828056E-005    8.803141E+001    1.828056E-005    8.803141E+001    1.000001E+000    -1.570103E+002   
! Gamma  9.804583E+003    0.000000E+000    0.000000E+000    0.000000E+000    
! Port Impedance  5.000000E+001    0.000000E+000    5.000000E+001    0.000000E+000    

2.500000E+001    1.000000E+000    1.520977E+002    1.938098E-005    8.657294E+001    1.938098E-005    8.657294E+001    1.000000E+000    -1.589203E+002   
! Gamma  9.803485E+003    0.000000E+000    0.000000E+000    0.000000E+000    
! Port Impedance  5.000000E+001    0.000000E+000    5.000000E+001    0.000000E+000    

2.600000E+001    1.000000E+000    1.510245E+002    2.052195E-005    8.512971E+001    2.052195E-005    8.512971E+001    9.999998E-001    -1.607938E+002   
! Gamma  9.802343E+003    0.000000E+000    0.000000E+000    0.000000E+000    
! Port Impedance  5.000000E+001    0.000000E+000    5.000000E+001    0.000000E+000    

2.700000E+001    1.000000E+000    1.499560E+002    2.170648E-005    8.369059E+001    2.170648E-005    8.369059E+001    9.999993E-001    -1.626521E+002   
! Gamma  9.801155E+003    0.000000E+000    0.000000E+000    0.000000E+000    
! Port Impedance  5.000000E+001    0.000000E+000    5.000000E+001    0.000000E+000    

2.800000E+001    1.000000E+000    1.488924E+002    2.293789E-005    8.224330E+001    2.293789E-005    8.224330E+001    9.999987E-001    -1.645191E+002   
! Gamma  9.799923E+003    0.000000E+000    0.000000E+000    0.000000E+000    
! Port Impedance  5.000000E+001    0.000000E+000    5.000000E+001    0.000000E+000    

2.900000E+001    1.000000E+000    1.478339E+002    2.422002E-005    8.077334E+001    2.422002E-005    8.077334E+001    9.999981E-001    -1.664237E+002   
! Gamma  9.798645E+003    0.000000E+000    0.000000E+000    0.000000E+000    
! Port Impedance  5.000000E+001    0.000000E+000    5.000000E+001    0.000000E+000    

3.000000E+001    1.000000E+000    1.467806E+002    2.555728E-005    7.926238E+001    2.555728E-005    7.926238E+001    9.999975E-001    -1.684028E+002   
! Gamma  9.797323E+003    0.000000E+000    0.000000E+000    0.000000E+000    
! Port Impedance  5.000000E+001    0.000000E+000    5.000000E+001    0.000000E+000    

3.100000E+001    1.000000E+000    1.457326E+002    2.695487E-005    7.768566E+001    2.695487E-005    7.768566E+001    9.999969E-001    -1.705066E+002   
! Gamma  9.795955E+003    0.000000E+000    0.000000E+000    0.000000E+000    
! Port Impedance  5.000000E+001    0.000000E+000    5.000000E+001    0.000000E+000    

3.200000E+001    1.000000E+000    1.446900E+002    2.841894E-005    7.600745E+001    2.841894E-005    7.600745E+001    9.999964E-001    -1.728071E+002   
! Gamma  9.794542E+003    0.000000E+000    0.000000E+000    0.000000E+000    
! Port Impedance  5.000000E+001    0.000000E+000    5.000000E+001    0.000000E+000    

3.300000E+001    1.000000E+000    1.436530E+002    2.995683E-005    7.417275E+001    2.995683E-005    7.417275E+001    9.999961E-001    -1.754152E+002   
! Gamma  9.793085E+003    0.000000E+000    0.000000E+000    0.000000E+000    
! Port Impedance  5.000000E+001    0.000000E+000    5.000000E+001    0.000000E+000    

3.400000E+001    1.000000E+000    1.426216E+002    3.157701E-005    7.209061E+001    3.157701E-005    7.209061E+001    9.999958E-001    -1.785143E+002   
! Gamma  9.791582E+003    0.000000E+000    0.000000E+000    0.000000E+000    
! Port Impedance  5.000000E+001    0.000000E+000    5.000000E+001    0.000000E+000    

3.500000E+001    1.000000E+000    1.415960E+002    3.328771E-005    6.959713E+001    3.328771E-005    6.959713E+001    9.999959E-001    1.775656E+002    
! Gamma  9.790034E+003    0.000000E+000    0.000000E+000    0.000000E+000    
! Port Impedance  5.000000E+001    0.000000E+000    5.000000E+001    0.000000E+000    

3.600000E+001    1.000000E+000    1.405762E+002    3.508953E-005    6.636264E+001    3.508953E-005    6.636264E+001    9.999964E-001    1.721592E+002    
! Gamma  9.788441E+003    0.000000E+000    0.000000E+000    0.000000E+000    
! Port Impedance  5.000000E+001    0.000000E+000    5.000000E+001    0.000000E+000    

3.700000E+001    1.000000E+000    1.395624E+002    3.693477E-005    6.161298E+001    3.693477E-005    6.161298E+001    9.999978E-001    1.636980E+002    
! Gamma  9.786803E+003    0.000000E+000    0.000000E+000    0.000000E+000    
! Port Impedance  5.000000E+001    0.000000E+000    5.000000E+001    0.000000E+000    

3.800000E+001    1.000000E+000    1.385546E+002    3.844481E-005    5.304059E+001    3.844481E-005    5.304059E+001    1.000001E+000    1.474913E+002    
! Gamma  9.785120E+003    0.000000E+000    0.000000E+000    0.000000E+000    
! Port Impedance  5.000000E+001    0.000000E+000    5.000000E+001    0.000000E+000    

3.900000E+001    1.000000E+000    1.375529E+002    3.561594E-005    3.062849E+001    3.561594E-005    3.062849E+001    1.000012E+000    1.032602E+002    
! Gamma  9.783392E+003    0.000000E+000    0.000000E+000    0.000000E+000    
! Port Impedance  5.000000E+001    0.000000E+000    5.000000E+001    0.000000E+000    

4.000000E+001    1.000000E+000    1.365575E+002    4.308404E-006    1.404833E+002    4.308404E-006    1.404833E+002    1.000016E+000    -3.154822E+001   
! Gamma  9.781618E+003    0.000000E+000    0.000000E+000    0.000000E+000    
! Port Impedance  5.000000E+001    0.000000E+000    5.000000E+001    0.000000E+000    

4.100000E+001    1.000000E+000    1.355684E+002    3.245371E-005    1.013032E+002    3.245371E-005    1.013032E+002    9.999988E-001    -1.130144E+002   
! Gamma  9.779799E+003    0.000000E+000    0.000000E+000    0.000000E+000    
! Port Impedance  5.000000E+001    0.000000E+000    5.000000E+001    0.000000E+000    

4.200000E+001    1.000000E+000    1.345856E+002    4.017752E-005    8.858345E+001    4.017752E-005    8.858345E+001    9.999974E-001    -1.375134E+002   
! Gamma  9.777935E+003    0.000000E+000    0.000000E+000    0.000000E+000    
! Port Impedance  5.000000E+001    0.000000E+000    5.000000E+001    0.000000E+000    

4.300000E+001    1.000000E+000    1.336092E+002    4.446780E-005    8.255154E+001    4.446780E-005    8.255154E+001    9.999986E-001    -1.485510E+002   
! Gamma  9.776025E+003    0.000000E+000    0.000000E+000    0.000000E+000    
! Port Impedance  5.000000E+001    0.000000E+000    5.000000E+001    0.000000E+000    

4.400000E+001    1.000000E+000    1.326394E+002    4.791176E-005    7.882610E+001    4.791176E-005    7.882610E+001    1.000000E+000    -1.549814E+002   
! Gamma  9.774071E+003    0.000000E+000    0.000000E+000    0.000000E+000    
! Port Impedance  5.000000E+001    0.000000E+000    5.000000E+001    0.000000E+000    

4.500000E+001    1.000000E+000    1.316761E+002    5.112729E-005    7.614891E+001    5.112729E-005    7.614891E+001    1.000002E+000    -1.593345E+002   
! Gamma  9.772071E+003    0.000000E+000    0.000000E+000    0.000000E+000    
! Port Impedance  5.000000E+001    0.000000E+000    5.000000E+001    0.000000E+000    

4.600000E+001    1.000000E+000    1.307194E+002    5.433605E-005    7.403522E+001    5.433605E-005    7.403522E+001    1.000004E+000    -1.625820E+002   
! Gamma  9.770025E+003    0.000000E+000    0.000000E+000    0.000000E+000    
! Port Impedance  5.000000E+001    0.000000E+000    5.000000E+001    0.000000E+000    

4.700000E+001    1.000000E+000    1.297694E+002    5.764564E-005    7.226018E+001    5.764564E-005    7.226018E+001    1.000005E+000    -1.651742E+002   
! Gamma  9.767934E+003    0.000000E+000    0.000000E+000    0.000000E+000    
! Port Impedance  5.000000E+001    0.000000E+000    5.000000E+001    0.000000E+000    

4.800000E+001    1.000000E+000    1.288261E+002    6.112392E-005    7.070546E+001    6.112392E-005    7.070546E+001    1.000005E+000    -1.673484E+002   
! Gamma  9.765798E+003    0.000000E+000    0.000000E+000    0.000000E+000    
! Port Impedance  5.000000E+001    0.000000E+000    5.000000E+001    0.000000E+000    

4.900000E+001    1.000000E+000    1.278895E+002    6.482439E-005    6.930281E+001    6.482439E-005    6.930281E+001    1.000004E+000    -1.692419E+002   
! Gamma  9.763616E+003    0.000000E+000    0.000000E+000    0.000000E+000    
! Port Impedance  5.000000E+001    0.000000E+000    5.000000E+001    0.000000E+000    

5.000000E+001    1.000000E+000    1.269597E+002    6.879692E-005    6.800989E+001    6.879692E-005    6.800989E+001    1.000000E+000    -1.709399E+002   
! Gamma  9.761389E+003    0.000000E+000    0.000000E+000    0.000000E+000    
! Port Impedance  5.000000E+001    0.000000E+000    5.000000E+001    0.000000E+000    

