! Touchstone file from project 
# GHZ S MA R 30.000000
! Modal data exported
! Port[1] = IF_output:1
! Port[2] = RF_input:1
0.000000E+000    0.000000E+000    0.000000E+000    1.000000E+000    0.000000E+000    1.000000E+000    0.000000E+000    0.000000E+000    0.000000E+000    
! Gamma  1.007431E-001    0.000000E+000    0.000000E+000    0.000000E+000    
! Port Impedance  3.000000E+001    0.000000E+000    3.000000E+001    0.000000E+000    

1.000000E-001    7.363941E-004    4.303048E+001    9.999608E-001    -2.721555E-001   9.999608E-001    -2.721555E-001   6.904333E-004    1.326987E+002    
! Gamma  6.231006E-003    5.681214E+000    0.000000E+000    0.000000E+000    
! Port Impedance  3.000000E+001    0.000000E+000    3.000000E+001    0.000000E+000    

2.000000E-001    1.470853E-003    7.320643E+001    9.999386E-001    -5.439851E-001   9.999386E-001    -5.439851E-001   6.252611E-004    1.228448E+002    
! Gamma  8.248040E-003    1.136375E+001    0.000000E+000    0.000000E+000    
! Port Impedance  3.000000E+001    0.000000E+000    3.000000E+001    0.000000E+000    

3.000000E-001    2.016650E-003    7.862315E+001    9.999138E-001    -8.149654E-001   9.999138E-001    -8.149654E-001   9.454154E-004    1.079111E+002    
! Gamma  1.150862E-002    1.704596E+001    0.000000E+000    0.000000E+000    
! Port Impedance  3.000000E+001    0.000000E+000    3.000000E+001    0.000000E+000    

4.000000E-001    2.479862E-003    7.977091E+001    9.998919E-001    -1.085411E+000   9.998919E-001    -1.085411E+000   1.417686E-003    1.022383E+002    
! Gamma  1.587330E-002    2.272809E+001    0.000000E+000    0.000000E+000    
! Port Impedance  3.000000E+001    0.000000E+000    3.000000E+001    0.000000E+000    

5.000000E-001    2.911538E-003    7.989536E+001    9.998740E-001    -1.355573E+000   9.998740E-001    -1.355573E+000   1.939691E-003    9.967935E+001    
! Gamma  2.117219E-002    2.841021E+001    0.000000E+000    0.000000E+000    
! Port Impedance  3.000000E+001    0.000000E+000    3.000000E+001    0.000000E+000    

6.000000E-001    3.332772E-003    7.979935E+001    9.998594E-001    -1.625592E+000   9.998594E-001    -1.625592E+000   2.477570E-003    9.809713E+001    
! Gamma  2.722241E-002    3.409239E+001    0.000000E+000    0.000000E+000    
! Port Impedance  3.000000E+001    0.000000E+000    3.000000E+001    0.000000E+000    

7.000000E-001    3.752927E-003    7.967803E+001    9.998471E-001    -1.895534E+000   9.998471E-001    -1.895534E+000   3.018551E-003    9.691241E+001    
! Gamma  3.384378E-002    3.977472E+001    0.000000E+000    0.000000E+000    
! Port Impedance  3.000000E+001    0.000000E+000    3.000000E+001    0.000000E+000    

8.000000E-001    4.176271E-003    7.956532E+001    9.998363E-001    -2.165419E+000   9.998363E-001    -2.165419E+000   3.557587E-003    9.594295E+001    
! Gamma  4.087073E-002    4.545727E+001    0.000000E+000    0.000000E+000    
! Port Impedance  3.000000E+001    0.000000E+000    3.000000E+001    0.000000E+000    

9.000000E-001    4.604689E-003    7.945663E+001    9.998263E-001    -2.435253E+000   9.998263E-001    -2.435253E+000   4.092826E-003    9.511687E+001    
! Gamma  4.815959E-002    5.114015E+001    0.000000E+000    0.000000E+000    
! Port Impedance  3.000000E+001    0.000000E+000    3.000000E+001    0.000000E+000    

1.000000E+000    5.038936E-003    7.934211E+001    9.998167E-001    -2.705030E+000   9.998167E-001    -2.705030E+000   4.623779E-003    9.439816E+001    
! Gamma  5.559188E-002    5.682343E+001    0.000000E+000    0.000000E+000    
! Port Impedance  3.000000E+001    0.000000E+000    3.000000E+001    0.000000E+000    

1.100000E+000    5.479232E-003    7.921438E+001    9.998073E-001    -2.974741E+000   9.998073E-001    -2.974741E+000   5.150544E-003    9.376491E+001    
! Gamma  6.307443E-002    6.250721E+001    0.000000E+000    0.000000E+000    
! Port Impedance  3.000000E+001    0.000000E+000    3.000000E+001    0.000000E+000    

1.200000E+000    5.925556E-003    7.906933E+001    9.997979E-001    -3.244376E+000   9.997979E-001    -3.244376E+000   5.673455E-003    9.320199E+001    
! Gamma  7.053740E-002    6.819157E+001    0.000000E+000    0.000000E+000    
! Port Impedance  3.000000E+001    0.000000E+000    3.000000E+001    0.000000E+000    

1.300000E+000    6.377788E-003    7.890532E+001    9.997883E-001    -3.513927E+000   9.997883E-001    -3.513927E+000   6.192932E-003    9.269817E+001    
! Gamma  7.793127E-002    7.387657E+001    0.000000E+000    0.000000E+000    
! Port Impedance  3.000000E+001    0.000000E+000    3.000000E+001    0.000000E+000    

1.400000E+000    6.835775E-003    7.872228E+001    9.997785E-001    -3.783382E+000   9.997785E-001    -3.783382E+000   6.709414E-003    9.224477E+001    
! Gamma  8.522332E-002    7.956229E+001    0.000000E+000    0.000000E+000    
! Port Impedance  3.000000E+001    0.000000E+000    3.000000E+001    0.000000E+000    

1.500000E+000    7.299361E-003    7.852106E+001    9.997683E-001    -4.052734E+000   9.997683E-001    -4.052734E+000   7.223336E-003    9.183491E+001    
! Gamma  9.239425E-002    8.524879E+001    0.000000E+000    0.000000E+000    
! Port Impedance  3.000000E+001    0.000000E+000    3.000000E+001    0.000000E+000    

1.600000E+000    7.768402E-003    7.830295E+001    9.997579E-001    -4.321975E+000   9.997579E-001    -4.321975E+000   7.735118E-003    9.146298E+001    
! Gamma  9.943505E-002    9.093612E+001    0.000000E+000    0.000000E+000    
! Port Impedance  3.000000E+001    0.000000E+000    3.000000E+001    0.000000E+000    

1.700000E+000    8.242766E-003    7.806945E+001    9.997471E-001    -4.591096E+000   9.997471E-001    -4.591096E+000   8.245168E-003    9.112439E+001    
! Gamma  1.063443E-001    9.662434E+001    0.000000E+000    0.000000E+000    
! Port Impedance  3.000000E+001    0.000000E+000    3.000000E+001    0.000000E+000    

1.800000E+000    8.722330E-003    7.782209E+001    9.997359E-001    -4.860091E+000   9.997359E-001    -4.860091E+000   8.753881E-003    9.081526E+001    
! Gamma  1.131262E-001    1.023135E+002    0.000000E+000    0.000000E+000    
! Port Impedance  3.000000E+001    0.000000E+000    3.000000E+001    0.000000E+000    

1.900000E+000    9.206985E-003    7.756233E+001    9.997243E-001    -5.128955E+000   9.997243E-001    -5.128955E+000   9.261641E-003    9.053231E+001    
! Gamma  1.197885E-001    1.080036E+002    0.000000E+000    0.000000E+000    
! Port Impedance  3.000000E+001    0.000000E+000    3.000000E+001    0.000000E+000    

2.000000E+000    9.696624E-003    7.729153E+001    9.997123E-001    -5.397680E+000   9.997123E-001    -5.397680E+000   9.768825E-003    9.027267E+001    
! Gamma  1.263414E-001    1.136948E+002    0.000000E+000    0.000000E+000    
! Port Impedance  3.000000E+001    0.000000E+000    3.000000E+001    0.000000E+000    

2.100000E+000    1.019115E-002    7.701092E+001    9.997000E-001    -5.666262E+000   9.997000E-001    -5.666262E+000   1.027580E-002    9.003383E+001    
! Gamma  1.327964E-001    1.193870E+002    0.000000E+000    0.000000E+000    
! Port Impedance  3.000000E+001    0.000000E+000    3.000000E+001    0.000000E+000    

2.200000E+000    1.069045E-002    7.672160E+001    9.996873E-001    -5.934697E+000   9.996873E-001    -5.934697E+000   1.078294E-002    8.981357E+001    
! Gamma  1.391656E-001    1.250803E+002    0.000000E+000    0.000000E+000    
! Port Impedance  3.000000E+001    0.000000E+000    3.000000E+001    0.000000E+000    

2.300000E+000    1.119444E-002    7.642453E+001    9.996742E-001    -6.202980E+000   9.996742E-001    -6.202980E+000   1.129058E-002    8.960984E+001    
! Gamma  1.454611E-001    1.307748E+002    0.000000E+000    0.000000E+000    
! Port Impedance  3.000000E+001    0.000000E+000    3.000000E+001    0.000000E+000    

2.400000E+000    1.170302E-002    7.612057E+001    9.996607E-001    -6.471109E+000   9.996607E-001    -6.471109E+000   1.179908E-002    8.942081E+001    
! Gamma  1.516949E-001    1.364705E+002    0.000000E+000    0.000000E+000    
! Port Impedance  3.000000E+001    0.000000E+000    3.000000E+001    0.000000E+000    

2.500000E+000    1.221607E-002    7.581046E+001    9.996469E-001    -6.739080E+000   9.996469E-001    -6.739080E+000   1.230878E-002    8.924476E+001    
! Gamma  1.578780E-001    1.421673E+002    0.000000E+000    0.000000E+000    
! Port Impedance  3.000000E+001    0.000000E+000    3.000000E+001    0.000000E+000    

2.600000E+000    1.273350E-002    7.549485E+001    9.996327E-001    -7.006890E+000   9.996327E-001    -7.006890E+000   1.281999E-002    8.908011E+001    
! Gamma  1.640211E-001    1.478655E+002    0.000000E+000    0.000000E+000    
! Port Impedance  3.000000E+001    0.000000E+000    3.000000E+001    0.000000E+000    

2.700000E+000    1.325519E-002    7.517429E+001    9.996182E-001    -7.274539E+000   9.996182E-001    -7.274539E+000   1.333303E-002    8.892540E+001    
! Gamma  1.701337E-001    1.535649E+002    0.000000E+000    0.000000E+000    
! Port Impedance  3.000000E+001    0.000000E+000    3.000000E+001    0.000000E+000    

2.800000E+000    1.378103E-002    7.484926E+001    9.996034E-001    -7.542024E+000   9.996034E-001    -7.542024E+000   1.384819E-002    8.877924E+001    
! Gamma  1.762245E-001    1.592657E+002    0.000000E+000    0.000000E+000    
! Port Impedance  3.000000E+001    0.000000E+000    3.000000E+001    0.000000E+000    

2.900000E+000    1.431091E-002    7.452017E+001    9.995882E-001    -7.809345E+000   9.995882E-001    -7.809345E+000   1.436574E-002    8.864034E+001    
! Gamma  1.823015E-001    1.649679E+002    0.000000E+000    0.000000E+000    
! Port Impedance  3.000000E+001    0.000000E+000    3.000000E+001    0.000000E+000    

3.000000E+000    1.484471E-002    7.418737E+001    9.995728E-001    -8.076500E+000   9.995728E-001    -8.076500E+000   1.488594E-002    8.850750E+001    
! Gamma  1.883717E-001    1.706715E+002    0.000000E+000    0.000000E+000    
! Port Impedance  3.000000E+001    0.000000E+000    3.000000E+001    0.000000E+000    

3.100000E+000    1.538231E-002    7.385117E+001    9.995570E-001    -8.343491E+000   9.995570E-001    -8.343491E+000   1.540903E-002    8.837961E+001    
! Gamma  1.944411E-001    1.763765E+002    0.000000E+000    0.000000E+000    
! Port Impedance  3.000000E+001    0.000000E+000    3.000000E+001    0.000000E+000    

3.200000E+000    1.592359E-002    7.351182E+001    9.995409E-001    -8.610316E+000   9.995409E-001    -8.610316E+000   1.593521E-002    8.825562E+001    
! Gamma  2.005152E-001    1.820830E+002    0.000000E+000    0.000000E+000    
! Port Impedance  3.000000E+001    0.000000E+000    3.000000E+001    0.000000E+000    

3.300000E+000    1.646842E-002    7.316953E+001    9.995246E-001    -8.876978E+000   9.995246E-001    -8.876978E+000   1.646467E-002    8.813458E+001    
! Gamma  2.065987E-001    1.877910E+002    0.000000E+000    0.000000E+000    
! Port Impedance  3.000000E+001    0.000000E+000    3.000000E+001    0.000000E+000    

3.400000E+000    1.701669E-002    7.282450E+001    9.995079E-001    -9.143477E+000   9.995079E-001    -9.143477E+000   1.699758E-002    8.801562E+001    
! Gamma  2.126956E-001    1.935005E+002    0.000000E+000    0.000000E+000    
! Port Impedance  3.000000E+001    0.000000E+000    3.000000E+001    0.000000E+000    

3.500000E+000    1.756827E-002    7.247687E+001    9.994910E-001    -9.409815E+000   9.994910E-001    -9.409815E+000   1.753408E-002    8.789792E+001    
! Gamma  2.188091E-001    1.992116E+002    0.000000E+000    0.000000E+000    
! Port Impedance  3.000000E+001    0.000000E+000    3.000000E+001    0.000000E+000    

3.600000E+000    1.812304E-002    7.212678E+001    9.994738E-001    -9.675993E+000   9.994738E-001    -9.675993E+000   1.807427E-002    8.778078E+001    
! Gamma  2.249420E-001    2.049244E+002    0.000000E+000    0.000000E+000    
! Port Impedance  3.000000E+001    0.000000E+000    3.000000E+001    0.000000E+000    

3.700000E+000    1.868088E-002    7.177434E+001    9.994563E-001    -9.942015E+000   9.994563E-001    -9.942015E+000   1.861826E-002    8.766355E+001    
! Gamma  2.310967E-001    2.106387E+002    0.000000E+000    0.000000E+000    
! Port Impedance  3.000000E+001    0.000000E+000    3.000000E+001    0.000000E+000    

3.800000E+000    1.924168E-002    7.141964E+001    9.994385E-001    -1.020788E+001   9.994385E-001    -1.020788E+001   1.916612E-002    8.754567E+001    
! Gamma  2.372749E-001    2.163548E+002    0.000000E+000    0.000000E+000    
! Port Impedance  3.000000E+001    0.000000E+000    3.000000E+001    0.000000E+000    

3.900000E+000    1.980531E-002    7.106275E+001    9.994205E-001    -1.047360E+001   9.994205E-001    -1.047360E+001   1.971789E-002    8.742664E+001    
! Gamma  2.434781E-001    2.220725E+002    0.000000E+000    0.000000E+000    
! Port Impedance  3.000000E+001    0.000000E+000    3.000000E+001    0.000000E+000    

4.000000E+000    2.037167E-002    7.070374E+001    9.994022E-001    -1.073916E+001   9.994022E-001    -1.073916E+001   2.027360E-002    8.730603E+001    
! Gamma  2.497073E-001    2.277919E+002    0.000000E+000    0.000000E+000    
! Port Impedance  3.000000E+001    0.000000E+000    3.000000E+001    0.000000E+000    

4.100000E+000    2.094064E-002    7.034267E+001    9.993836E-001    -1.100459E+001   9.993836E-001    -1.100459E+001   2.083328E-002    8.718350E+001    
! Gamma  2.559631E-001    2.335132E+002    0.000000E+000    0.000000E+000    
! Port Impedance  3.000000E+001    0.000000E+000    3.000000E+001    0.000000E+000    

4.200000E+000    2.151213E-002    6.997957E+001    9.993647E-001    -1.126987E+001   9.993647E-001    -1.126987E+001   2.139690E-002    8.705875E+001    
! Gamma  2.622459E-001    2.392361E+002    0.000000E+000    0.000000E+000    
! Port Impedance  3.000000E+001    0.000000E+000    3.000000E+001    0.000000E+000    

4.300000E+000    2.208603E-002    6.961450E+001    9.993456E-001    -1.153501E+001   9.993456E-001    -1.153501E+001   2.196445E-002    8.693156E+001    
! Gamma  2.685560E-001    2.449609E+002    0.000000E+000    0.000000E+000    
! Port Impedance  3.000000E+001    0.000000E+000    3.000000E+001    0.000000E+000    

4.400000E+000    2.266224E-002    6.924748E+001    9.993262E-001    -1.180002E+001   9.993262E-001    -1.180002E+001   2.253590E-002    8.680173E+001    
! Gamma  2.748931E-001    2.506875E+002    0.000000E+000    0.000000E+000    
! Port Impedance  3.000000E+001    0.000000E+000    3.000000E+001    0.000000E+000    

4.500000E+000    2.324068E-002    6.887854E+001    9.993065E-001    -1.206491E+001   9.993065E-001    -1.206491E+001   2.311120E-002    8.666916E+001    
! Gamma  2.812570E-001    2.564160E+002    0.000000E+000    0.000000E+000    
! Port Impedance  3.000000E+001    0.000000E+000    3.000000E+001    0.000000E+000    

4.600000E+000    2.382126E-002    6.850772E+001    9.992865E-001    -1.232967E+001   9.992865E-001    -1.232967E+001   2.369029E-002    8.653377E+001    
! Gamma  2.876473E-001    2.621463E+002    0.000000E+000    0.000000E+000    
! Port Impedance  3.000000E+001    0.000000E+000    3.000000E+001    0.000000E+000    

4.700000E+000    2.440390E-002    6.813503E+001    9.992662E-001    -1.259431E+001   9.992662E-001    -1.259431E+001   2.427311E-002    8.639552E+001    
! Gamma  2.940634E-001    2.678786E+002    0.000000E+000    0.000000E+000    
! Port Impedance  3.000000E+001    0.000000E+000    3.000000E+001    0.000000E+000    

4.800000E+000    2.498852E-002    6.776051E+001    9.992456E-001    -1.285884E+001   9.992456E-001    -1.285884E+001   2.485958E-002    8.625443E+001    
! Gamma  3.005044E-001    2.736127E+002    0.000000E+000    0.000000E+000    
! Port Impedance  3.000000E+001    0.000000E+000    3.000000E+001    0.000000E+000    

4.900000E+000    2.557506E-002    6.738417E+001    9.992248E-001    -1.312325E+001   9.992248E-001    -1.312325E+001   2.544963E-002    8.611052E+001    
! Gamma  3.069696E-001    2.793488E+002    0.000000E+000    0.000000E+000    
! Port Impedance  3.000000E+001    0.000000E+000    3.000000E+001    0.000000E+000    

5.000000E+000    2.616346E-002    6.700604E+001    9.992036E-001    -1.338757E+001   9.992036E-001    -1.338757E+001   2.604318E-002    8.596389E+001    
! Gamma  3.134581E-001    2.850868E+002    0.000000E+000    0.000000E+000    
! Port Impedance  3.000000E+001    0.000000E+000    3.000000E+001    0.000000E+000    

5.100000E+000    2.675365E-002    6.662615E+001    9.991821E-001    -1.365179E+001   9.991821E-001    -1.365179E+001   2.664013E-002    8.581462E+001    
! Gamma  3.199688E-001    2.908268E+002    0.000000E+000    0.000000E+000    
! Port Impedance  3.000000E+001    0.000000E+000    3.000000E+001    0.000000E+000    

5.200000E+000    2.734560E-002    6.624453E+001    9.991603E-001    -1.391591E+001   9.991603E-001    -1.391591E+001   2.724039E-002    8.566284E+001    
! Gamma  3.265008E-001    2.965688E+002    0.000000E+000    0.000000E+000    
! Port Impedance  3.000000E+001    0.000000E+000    3.000000E+001    0.000000E+000    

5.300000E+000    2.793925E-002    6.586120E+001    9.991381E-001    -1.417995E+001   9.991381E-001    -1.417995E+001   2.784387E-002    8.550870E+001    
! Gamma  3.330528E-001    3.023128E+002    0.000000E+000    0.000000E+000    
! Port Impedance  3.000000E+001    0.000000E+000    3.000000E+001    0.000000E+000    

5.400000E+000    2.853458E-002    6.547621E+001    9.991157E-001    -1.444391E+001   9.991157E-001    -1.444391E+001   2.845048E-002    8.535234E+001    
! Gamma  3.396239E-001    3.080589E+002    0.000000E+000    0.000000E+000    
! Port Impedance  3.000000E+001    0.000000E+000    3.000000E+001    0.000000E+000    

5.500000E+000    2.913154E-002    6.508958E+001    9.990929E-001    -1.470779E+001   9.990929E-001    -1.470779E+001   2.906012E-002    8.519395E+001    
! Gamma  3.462127E-001    3.138069E+002    0.000000E+000    0.000000E+000    
! Port Impedance  3.000000E+001    0.000000E+000    3.000000E+001    0.000000E+000    

5.600000E+000    2.973011E-002    6.470137E+001    9.990697E-001    -1.497161E+001   9.990697E-001    -1.497161E+001   2.967270E-002    8.503371E+001    
! Gamma  3.528183E-001    3.195571E+002    0.000000E+000    0.000000E+000    
! Port Impedance  3.000000E+001    0.000000E+000    3.000000E+001    0.000000E+000    

5.700000E+000    3.033028E-002    6.431162E+001    9.990462E-001    -1.523536E+001   9.990462E-001    -1.523536E+001   3.028812E-002    8.487180E+001    
! Gamma  3.594394E-001    3.253093E+002    0.000000E+000    0.000000E+000    
! Port Impedance  3.000000E+001    0.000000E+000    3.000000E+001    0.000000E+000    

5.800000E+000    3.093203E-002    6.392038E+001    9.990223E-001    -1.549905E+001   9.990223E-001    -1.549905E+001   3.090627E-002    8.470843E+001    
! Gamma  3.660749E-001    3.310635E+002    0.000000E+000    0.000000E+000    
! Port Impedance  3.000000E+001    0.000000E+000    3.000000E+001    0.000000E+000    

5.900000E+000    3.153535E-002    6.352770E+001    9.989980E-001    -1.576269E+001   9.989980E-001    -1.576269E+001   3.152706E-002    8.454380E+001    
! Gamma  3.727236E-001    3.368199E+002    0.000000E+000    0.000000E+000    
! Port Impedance  3.000000E+001    0.000000E+000    3.000000E+001    0.000000E+000    

6.000000E+000    3.214024E-002    6.313365E+001    9.989734E-001    -1.602629E+001   9.989734E-001    -1.602629E+001   3.215040E-002    8.437811E+001    
! Gamma  3.793844E-001    3.425783E+002    0.000000E+000    0.000000E+000    
! Port Impedance  3.000000E+001    0.000000E+000    3.000000E+001    0.000000E+000    

6.100000E+000    3.274670E-002    6.273830E+001    9.989484E-001    -1.628984E+001   9.989484E-001    -1.628984E+001   3.277619E-002    8.421155E+001    
! Gamma  3.860563E-001    3.483389E+002    0.000000E+000    0.000000E+000    
! Port Impedance  3.000000E+001    0.000000E+000    3.000000E+001    0.000000E+000    

