! Touchstone file from project 
# GHZ S MA R 50.000000
! Modal data exported
! Port[1] = IF_output:1
! Port[2] = RF_input:1
0.000000E+000    2.070158E-002    1.800000E+002    1.000000E+000    0.000000E+000    1.000000E+000    0.000000E+000    1.817311E-002    0.000000E+000    
! Gamma  1.619944E-001    0.000000E+000    0.000000E+000    0.000000E+000    
! Port Impedance  5.000000E+001    0.000000E+000    5.000000E+001    0.000000E+000    

1.000000E-001    5.372628E-004    -2.414606E+000   9.999128E-001    -3.281405E-001   9.999128E-001    -3.281405E-001   3.759562E-004    -1.773634E+002   
! Gamma  5.665416E-003    5.282017E+000    0.000000E+000    0.000000E+000    
! Port Impedance  5.000000E+001    0.000000E+000    5.000000E+001    0.000000E+000    

2.000000E-001    9.061257E-004    -5.491174E+001   9.997201E-001    -6.676749E-001   9.997201E-001    -6.676749E-001   2.883079E-004    -1.560206E+002   
! Gamma  6.188387E-003    1.056782E+001    0.000000E+000    0.000000E+000    
! Port Impedance  5.000000E+001    0.000000E+000    5.000000E+001    0.000000E+000    

3.000000E-001    1.152321E-003    -6.333929E+001   9.995213E-001    -9.951770E-001   9.995213E-001    -9.951770E-001   3.209655E-004    -1.365695E+002   
! Gamma  7.061035E-003    1.585292E+001    0.000000E+000    0.000000E+000    
! Port Impedance  5.000000E+001    0.000000E+000    5.000000E+001    0.000000E+000    

4.000000E-001    1.269373E-003    -6.521189E+001   9.993811E-001    -1.318342E+000   9.993811E-001    -1.318342E+000   3.883564E-004    -1.242064E+002   
! Gamma  8.279277E-003    2.113801E+001    0.000000E+000    0.000000E+000    
! Port Impedance  5.000000E+001    0.000000E+000    5.000000E+001    0.000000E+000    

5.000000E-001    1.331259E-003    -6.557953E+001   9.992885E-001    -1.640229E+000   9.992885E-001    -1.640229E+000   4.688099E-004    -1.165307E+002   
! Gamma  9.839151E-003    2.642327E+001    0.000000E+000    0.000000E+000    
! Port Impedance  5.000000E+001    0.000000E+000    5.000000E+001    0.000000E+000    

6.000000E-001    1.373009E-003    -6.573944E+001   9.992273E-001    -1.961914E+000   9.992273E-001    -1.961914E+000   5.544935E-004    -1.115004E+002   
! Gamma  1.173579E-002    3.170881E+001    0.000000E+000    0.000000E+000    
! Port Impedance  5.000000E+001    0.000000E+000    5.000000E+001    0.000000E+000    

7.000000E-001    1.409193E-003    -6.606437E+001   9.991859E-001    -2.283730E+000   9.991859E-001    -2.283730E+000   6.423271E-004    -1.079941E+002   
! Gamma  1.396336E-002    3.699471E+001    0.000000E+000    0.000000E+000    
! Port Impedance  5.000000E+001    0.000000E+000    5.000000E+001    0.000000E+000    

8.000000E-001    1.445587E-003    -6.663185E+001   9.991571E-001    -2.605753E+000   9.991571E-001    -2.605753E+000   7.309751E-004    -1.054174E+002   
! Gamma  1.651511E-002    4.228104E+001    0.000000E+000    0.000000E+000    
! Port Impedance  5.000000E+001    0.000000E+000    5.000000E+001    0.000000E+000    

9.000000E-001    1.484322E-003    -6.742250E+001   9.991367E-001    -2.927974E+000   9.991367E-001    -2.927974E+000   8.197932E-004    -1.034412E+002   
! Gamma  1.938341E-002    4.756788E+001    0.000000E+000    0.000000E+000    
! Port Impedance  5.000000E+001    0.000000E+000    5.000000E+001    0.000000E+000    

1.000000E+000    1.526023E-003    -6.839034E+001   9.991219E-001    -3.250360E+000   9.991219E-001    -3.250360E+000   9.084336E-004    -1.018726E+002   
! Gamma  2.255981E-002    5.285530E+001    0.000000E+000    0.000000E+000    
! Port Impedance  5.000000E+001    0.000000E+000    5.000000E+001    0.000000E+000    

1.100000E+000    1.570691E-003    -6.948790E+001   9.991110E-001    -3.572878E+000   9.991110E-001    -3.572878E+000   9.966861E-004    -1.005921E+002   
! Gamma  2.603512E-002    5.814336E+001    0.000000E+000    0.000000E+000    
! Port Impedance  5.000000E+001    0.000000E+000    5.000000E+001    0.000000E+000    

1.200000E+000    1.618078E-003    -7.067438E+001   9.991030E-001    -3.895494E+000   9.991030E-001    -3.895494E+000   1.084408E-003    -9.952223E+001   
! Gamma  2.979946E-002    6.343213E+001    0.000000E+000    0.000000E+000    
! Port Impedance  5.000000E+001    0.000000E+000    5.000000E+001    0.000000E+000    

1.300000E+000    1.667847E-003    -7.191736E+001   9.990970E-001    -4.218181E+000   9.990970E-001    -4.218181E+000   1.171493E-003    -9.861076E+001   
! Gamma  3.384236E-002    6.872168E+001    0.000000E+000    0.000000E+000    
! Port Impedance  5.000000E+001    0.000000E+000    5.000000E+001    0.000000E+000    

1.400000E+000    1.719641E-003    -7.319219E+001   9.990926E-001    -4.540916E+000   9.990926E-001    -4.540916E+000   1.257853E-003    -9.782101E+001   
! Gamma  3.815283E-002    7.401208E+001    0.000000E+000    0.000000E+000    
! Port Impedance  5.000000E+001    0.000000E+000    5.000000E+001    0.000000E+000    

1.500000E+000    1.773115E-003    -7.448069E+001   9.990895E-001    -4.863679E+000   9.990895E-001    -4.863679E+000   1.343413E-003    -9.712658E+001   
! Gamma  4.271945E-002    7.930340E+001    0.000000E+000    0.000000E+000    
! Port Impedance  5.000000E+001    0.000000E+000    5.000000E+001    0.000000E+000    

1.600000E+000    1.827946E-003    -7.576978E+001   9.990873E-001    -5.186455E+000   9.990873E-001    -5.186455E+000   1.428104E-003    -9.650793E+001   
! Gamma  4.753040E-002    8.459571E+001    0.000000E+000    0.000000E+000    
! Port Impedance  5.000000E+001    0.000000E+000    5.000000E+001    0.000000E+000    

1.700000E+000    1.883837E-003    -7.705033E+001   9.990858E-001    -5.509228E+000   9.990858E-001    -5.509228E+000   1.511860E-003    -9.595028E+001   
! Gamma  5.257362E-002    8.988908E+001    0.000000E+000    0.000000E+000    
! Port Impedance  5.000000E+001    0.000000E+000    5.000000E+001    0.000000E+000    

1.800000E+000    1.940516E-003    -7.831615E+001   9.990849E-001    -5.831988E+000   9.990849E-001    -5.831988E+000   1.594620E-003    -9.544220E+001   
! Gamma  5.783681E-002    9.518358E+001    0.000000E+000    0.000000E+000    
! Port Impedance  5.000000E+001    0.000000E+000    5.000000E+001    0.000000E+000    

1.900000E+000    1.997737E-003    -7.956327E+001   9.990846E-001    -6.154723E+000   9.990846E-001    -6.154723E+000   1.676325E-003    -9.497471E+001   
! Gamma  6.330757E-002    1.004793E+002    0.000000E+000    0.000000E+000    
! Port Impedance  5.000000E+001    0.000000E+000    5.000000E+001    0.000000E+000    

2.000000E+000    2.055275E-003    -8.078934E+001   9.990846E-001    -6.477425E+000   9.990846E-001    -6.477425E+000   1.756916E-003    -9.454062E+001   
! Gamma  6.897342E-002    1.057763E+002    0.000000E+000    0.000000E+000    
! Port Impedance  5.000000E+001    0.000000E+000    5.000000E+001    0.000000E+000    

2.100000E+000    2.112924E-003    -8.199320E+001   9.990849E-001    -6.800086E+000   9.990849E-001    -6.800086E+000   1.836336E-003    -9.413408E+001   
! Gamma  7.482190E-002    1.110746E+002    0.000000E+000    0.000000E+000    
! Port Impedance  5.000000E+001    0.000000E+000    5.000000E+001    0.000000E+000    

2.200000E+000    2.170495E-003    -8.317454E+001   9.990855E-001    -7.122697E+000   9.990855E-001    -7.122697E+000   1.914530E-003    -9.375031E+001   
! Gamma  8.084063E-002    1.163743E+002    0.000000E+000    0.000000E+000    
! Port Impedance  5.000000E+001    0.000000E+000    5.000000E+001    0.000000E+000    

2.300000E+000    2.227815E-003    -8.433365E+001   9.990864E-001    -7.445253E+000   9.990864E-001    -7.445253E+000   1.991442E-003    -9.338528E+001   
! Gamma  8.701735E-002    1.216756E+002    0.000000E+000    0.000000E+000    
! Port Impedance  5.000000E+001    0.000000E+000    5.000000E+001    0.000000E+000    

2.400000E+000    2.284724E-003    -8.547126E+001   9.990874E-001    -7.767747E+000   9.990874E-001    -7.767747E+000   2.067018E-003    -9.303559E+001   
! Gamma  9.334000E-002    1.269784E+002    0.000000E+000    0.000000E+000    
! Port Impedance  5.000000E+001    0.000000E+000    5.000000E+001    0.000000E+000    

2.500000E+000    2.341074E-003    -8.658841E+001   9.990885E-001    -8.090174E+000   9.990885E-001    -8.090174E+000   2.141206E-003    -9.269836E+001   
! Gamma  9.979677E-002    1.322828E+002    0.000000E+000    0.000000E+000    
! Port Impedance  5.000000E+001    0.000000E+000    5.000000E+001    0.000000E+000    

2.600000E+000    2.396725E-003    -8.768632E+001   9.990897E-001    -8.412528E+000   9.990897E-001    -8.412528E+000   2.213953E-003    -9.237104E+001   
! Gamma  1.063761E-001    1.375890E+002    0.000000E+000    0.000000E+000    
! Port Impedance  5.000000E+001    0.000000E+000    5.000000E+001    0.000000E+000    

2.700000E+000    2.451549E-003    -8.876633E+001   9.990910E-001    -8.734805E+000   9.990910E-001    -8.734805E+000   2.285208E-003    -9.205144E+001   
! Gamma  1.130669E-001    1.428969E+002    0.000000E+000    0.000000E+000    
! Port Impedance  5.000000E+001    0.000000E+000    5.000000E+001    0.000000E+000    

2.800000E+000    2.505424E-003    -8.982987E+001   9.990924E-001    -9.057001E+000   9.990924E-001    -9.057001E+000   2.354921E-003    -9.173760E+001   
! Gamma  1.198582E-001    1.482067E+002    0.000000E+000    0.000000E+000    
! Port Impedance  5.000000E+001    0.000000E+000    5.000000E+001    0.000000E+000    

2.900000E+000    2.558234E-003    -9.087842E+001   9.990938E-001    -9.379110E+000   9.990938E-001    -9.379110E+000   2.423043E-003    -9.142774E+001   
! Gamma  1.267395E-001    1.535185E+002    0.000000E+000    0.000000E+000    
! Port Impedance  5.000000E+001    0.000000E+000    5.000000E+001    0.000000E+000    

3.000000E+000    2.609871E-003    -9.191347E+001   9.990952E-001    -9.701129E+000   9.990952E-001    -9.701129E+000   2.489527E-003    -9.112028E+001   
! Gamma  1.337010E-001    1.588322E+002    0.000000E+000    0.000000E+000    
! Port Impedance  5.000000E+001    0.000000E+000    5.000000E+001    0.000000E+000    

3.100000E+000    2.660233E-003    -9.293649E+001   9.990966E-001    -1.002305E+001   9.990966E-001    -1.002305E+001   2.554326E-003    -9.081374E+001   
! Gamma  1.407328E-001    1.641481E+002    0.000000E+000    0.000000E+000    
! Port Impedance  5.000000E+001    0.000000E+000    5.000000E+001    0.000000E+000    

3.200000E+000    2.709221E-003    -9.394898E+001   9.990979E-001    -1.034488E+001   9.990979E-001    -1.034488E+001   2.617394E-003    -9.050675E+001   
! Gamma  1.478260E-001    1.694661E+002    0.000000E+000    0.000000E+000    
! Port Impedance  5.000000E+001    0.000000E+000    5.000000E+001    0.000000E+000    

3.300000E+000    2.756743E-003    -9.495238E+001   9.990993E-001    -1.066661E+001   9.990993E-001    -1.066661E+001   2.678689E-003    -9.019803E+001   
! Gamma  1.549718E-001    1.747863E+002    0.000000E+000    0.000000E+000    
! Port Impedance  5.000000E+001    0.000000E+000    5.000000E+001    0.000000E+000    

3.400000E+000    2.802708E-003    -9.594814E+001   9.991005E-001    -1.098823E+001   9.991005E-001    -1.098823E+001   2.738168E-003    -8.988636E+001   
! Gamma  1.621620E-001    1.801089E+002    0.000000E+000    0.000000E+000    
! Port Impedance  5.000000E+001    0.000000E+000    5.000000E+001    0.000000E+000    

3.500000E+000    2.847032E-003    -9.693769E+001   9.991017E-001    -1.130975E+001   9.991017E-001    -1.130975E+001   2.795790E-003    -8.957058E+001   
! Gamma  1.693889E-001    1.854338E+002    0.000000E+000    0.000000E+000    
! Port Impedance  5.000000E+001    0.000000E+000    5.000000E+001    0.000000E+000    

3.600000E+000    2.889633E-003    -9.792242E+001   9.991027E-001    -1.163115E+001   9.991027E-001    -1.163115E+001   2.851519E-003    -8.924954E+001   
! Gamma  1.766452E-001    1.907612E+002    0.000000E+000    0.000000E+000    
! Port Impedance  5.000000E+001    0.000000E+000    5.000000E+001    0.000000E+000    

3.700000E+000    2.930433E-003    -9.890374E+001   9.991037E-001    -1.195244E+001   9.991037E-001    -1.195244E+001   2.905317E-003    -8.892214E+001   
! Gamma  1.839240E-001    1.960911E+002    0.000000E+000    0.000000E+000    
! Port Impedance  5.000000E+001    0.000000E+000    5.000000E+001    0.000000E+000    

3.800000E+000    2.969357E-003    -9.988301E+001   9.991045E-001    -1.227362E+001   9.991045E-001    -1.227362E+001   2.957150E-003    -8.858728E+001   
! Gamma  1.912191E-001    2.014237E+002    0.000000E+000    0.000000E+000    
! Port Impedance  5.000000E+001    0.000000E+000    5.000000E+001    0.000000E+000    

3.900000E+000    3.006333E-003    -1.008616E+002   9.991052E-001    -1.259468E+001   9.991052E-001    -1.259468E+001   3.006986E-003    -8.824390E+001   
! Gamma  1.985246E-001    2.067588E+002    0.000000E+000    0.000000E+000    
! Port Impedance  5.000000E+001    0.000000E+000    5.000000E+001    0.000000E+000    

4.000000E+000    3.041293E-003    -1.018409E+002   9.991058E-001    -1.291561E+001   9.991058E-001    -1.291561E+001   3.054797E-003    -8.789089E+001   
! Gamma  2.058350E-001    2.120968E+002    0.000000E+000    0.000000E+000    
! Port Impedance  5.000000E+001    0.000000E+000    5.000000E+001    0.000000E+000    

4.100000E+000    3.074172E-003    -1.028224E+002   9.991062E-001    -1.323643E+001   9.991062E-001    -1.323643E+001   3.100555E-003    -8.752717E+001   
! Gamma  2.131454E-001    2.174375E+002    0.000000E+000    0.000000E+000    
! Port Impedance  5.000000E+001    0.000000E+000    5.000000E+001    0.000000E+000    

4.200000E+000    3.104907E-003    -1.038073E+002   9.991064E-001    -1.355711E+001   9.991064E-001    -1.355711E+001   3.144238E-003    -8.715163E+001   
! Gamma  2.204512E-001    2.227811E+002    0.000000E+000    0.000000E+000    
! Port Impedance  5.000000E+001    0.000000E+000    5.000000E+001    0.000000E+000    

4.300000E+000    3.133440E-003    -1.047971E+002   9.991065E-001    -1.387767E+001   9.991065E-001    -1.387767E+001   3.185826E-003    -8.676314E+001   
! Gamma  2.277482E-001    2.281277E+002    0.000000E+000    0.000000E+000    
! Port Impedance  5.000000E+001    0.000000E+000    5.000000E+001    0.000000E+000    

4.400000E+000    3.159715E-003    -1.057932E+002   9.991063E-001    -1.419811E+001   9.991063E-001    -1.419811E+001   3.225302E-003    -8.636055E+001   
! Gamma  2.350327E-001    2.334773E+002    0.000000E+000    0.000000E+000    
! Port Impedance  5.000000E+001    0.000000E+000    5.000000E+001    0.000000E+000    

4.500000E+000    3.183680E-003    -1.067971E+002   9.991060E-001    -1.451841E+001   9.991060E-001    -1.451841E+001   3.262653E-003    -8.594268E+001   
! Gamma  2.423013E-001    2.388300E+002    0.000000E+000    0.000000E+000    
! Port Impedance  5.000000E+001    0.000000E+000    5.000000E+001    0.000000E+000    

4.600000E+000    3.205286E-003    -1.078104E+002   9.991054E-001    -1.483858E+001   9.991054E-001    -1.483858E+001   3.297872E-003    -8.550831E+001   
! Gamma  2.495509E-001    2.441859E+002    0.000000E+000    0.000000E+000    
! Port Impedance  5.000000E+001    0.000000E+000    5.000000E+001    0.000000E+000    

4.700000E+000    3.224488E-003    -1.088346E+002   9.991047E-001    -1.515861E+001   9.991047E-001    -1.515861E+001   3.330953E-003    -8.505618E+001   
! Gamma  2.567789E-001    2.495449E+002    0.000000E+000    0.000000E+000    
! Port Impedance  5.000000E+001    0.000000E+000    5.000000E+001    0.000000E+000    

4.800000E+000    3.241247E-003    -1.098713E+002   9.991037E-001    -1.547851E+001   9.991037E-001    -1.547851E+001   3.361898E-003    -8.458498E+001   
! Gamma  2.639830E-001    2.549073E+002    0.000000E+000    0.000000E+000    
! Port Impedance  5.000000E+001    0.000000E+000    5.000000E+001    0.000000E+000    

4.900000E+000    3.255525E-003    -1.109222E+002   9.991024E-001    -1.579827E+001   9.991024E-001    -1.579827E+001   3.390713E-003    -8.409336E+001   
! Gamma  2.711610E-001    2.602730E+002    0.000000E+000    0.000000E+000    
! Port Impedance  5.000000E+001    0.000000E+000    5.000000E+001    0.000000E+000    

5.000000E+000    3.267291E-003    -1.119890E+002   9.991010E-001    -1.611789E+001   9.991010E-001    -1.611789E+001   3.417409E-003    -8.357992E+001   
! Gamma  2.783113E-001    2.656421E+002    0.000000E+000    0.000000E+000    
! Port Impedance  5.000000E+001    0.000000E+000    5.000000E+001    0.000000E+000    

5.100000E+000    3.276519E-003    -1.130738E+002   9.990992E-001    -1.643738E+001   9.990992E-001    -1.643738E+001   3.442006E-003    -8.304319E+001   
! Gamma  2.854323E-001    2.710146E+002    0.000000E+000    0.000000E+000    
! Port Impedance  5.000000E+001    0.000000E+000    5.000000E+001    0.000000E+000    

5.200000E+000    3.283187E-003    -1.141784E+002   9.990973E-001    -1.675672E+001   9.990973E-001    -1.675672E+001   3.464527E-003    -8.248166E+001   
! Gamma  2.925229E-001    2.763908E+002    0.000000E+000    0.000000E+000    
! Port Impedance  5.000000E+001    0.000000E+000    5.000000E+001    0.000000E+000    

5.300000E+000    3.287281E-003    -1.153048E+002   9.990950E-001    -1.707592E+001   9.990950E-001    -1.707592E+001   3.485005E-003    -8.189374E+001   
! Gamma  2.995821E-001    2.817705E+002    0.000000E+000    0.000000E+000    
! Port Impedance  5.000000E+001    0.000000E+000    5.000000E+001    0.000000E+000    

5.400000E+000    3.288792E-003    -1.164554E+002   9.990926E-001    -1.739499E+001   9.990926E-001    -1.739499E+001   3.503480E-003    -8.127779E+001   
! Gamma  3.066091E-001    2.871539E+002    0.000000E+000    0.000000E+000    
! Port Impedance  5.000000E+001    0.000000E+000    5.000000E+001    0.000000E+000    

5.500000E+000    3.287718E-003    -1.176325E+002   9.990898E-001    -1.771391E+001   9.990898E-001    -1.771391E+001   3.520001E-003    -8.063210E+001   
! Gamma  3.136035E-001    2.925410E+002    0.000000E+000    0.000000E+000    
! Port Impedance  5.000000E+001    0.000000E+000    5.000000E+001    0.000000E+000    

5.600000E+000    3.284067E-003    -1.188385E+002   9.990868E-001    -1.803268E+001   9.990868E-001    -1.803268E+001   3.534623E-003    -7.995490E+001   
! Gamma  3.205648E-001    2.979318E+002    0.000000E+000    0.000000E+000    
! Port Impedance  5.000000E+001    0.000000E+000    5.000000E+001    0.000000E+000    

5.700000E+000    3.277854E-003    -1.200762E+002   9.990835E-001    -1.835132E+001   9.990835E-001    -1.835132E+001   3.547417E-003    -7.924434E+001   
! Gamma  3.274930E-001    3.033265E+002    0.000000E+000    0.000000E+000    
! Port Impedance  5.000000E+001    0.000000E+000    5.000000E+001    0.000000E+000    

5.800000E+000    3.269103E-003    -1.213483E+002   9.990799E-001    -1.866981E+001   9.990799E-001    -1.866981E+001   3.558459E-003    -7.849854E+001   
! Gamma  3.343881E-001    3.087251E+002    0.000000E+000    0.000000E+000    
! Port Impedance  5.000000E+001    0.000000E+000    5.000000E+001    0.000000E+000    

5.900000E+000    3.257851E-003    -1.226581E+002   9.990760E-001    -1.898815E+001   9.990760E-001    -1.898815E+001   3.567840E-003    -7.771554E+001   
! Gamma  3.412502E-001    3.141276E+002    0.000000E+000    0.000000E+000    
! Port Impedance  5.000000E+001    0.000000E+000    5.000000E+001    0.000000E+000    

6.000000E+000    3.244145E-003    -1.240087E+002   9.990719E-001    -1.930636E+001   9.990719E-001    -1.930636E+001   3.575661E-003    -7.689333E+001   
! Gamma  3.480797E-001    3.195341E+002    0.000000E+000    0.000000E+000    
! Port Impedance  5.000000E+001    0.000000E+000    5.000000E+001    0.000000E+000    

6.100000E+000    3.228045E-003    -1.254038E+002   9.990675E-001    -1.962442E+001   9.990675E-001    -1.962442E+001   3.582039E-003    -7.602987E+001   
! Gamma  3.548771E-001    3.249447E+002    0.000000E+000    0.000000E+000    
! Port Impedance  5.000000E+001    0.000000E+000    5.000000E+001    0.000000E+000    

