! Touchstone file from project 
# GHZ S MA R 50.000000
! Modal data exported
! Port[1] = IF_output:1
! Port[2] = RF_input:1
0.000000E+000    0.000000E+000    0.000000E+000    1.000000E+000    0.000000E+000    1.000000E+000    0.000000E+000    0.000000E+000    0.000000E+000    
! Gamma  1.223390E-001    0.000000E+000    0.000000E+000    0.000000E+000    
! Port Impedance  5.000000E+001    0.000000E+000    5.000000E+001    0.000000E+000    

1.000000E-001    9.903056E-004    -8.440722E+000   9.999462E-001    -2.800865E-001   9.999462E-001    -2.800865E-001   8.962883E-004    -1.712516E+002   
! Gamma  5.868022E-003    5.433830E+000    0.000000E+000    0.000000E+000    
! Port Impedance  5.000000E+001    0.000000E+000    5.000000E+001    0.000000E+000    

2.000000E-001    6.360537E-004    2.254700E+001    9.998862E-001    -5.596196E-001   9.998862E-001    -5.596196E-001   2.920191E-004    -1.483786E+002   
! Gamma  6.155205E-003    1.086975E+001    0.000000E+000    0.000000E+000    
! Port Impedance  5.000000E+001    0.000000E+000    5.000000E+001    0.000000E+000    

3.000000E-001    3.396136E-004    4.759551E+001    9.998059E-001    -8.370812E-001   9.998059E-001    -8.370812E-001   4.956451E-004    -1.356927E+001   
! Gamma  6.635200E-003    1.630527E+001    0.000000E+000    0.000000E+000    
! Port Impedance  5.000000E+001    0.000000E+000    5.000000E+001    0.000000E+000    

4.000000E-001    1.125353E-004    1.126948E+002    9.997228E-001    -1.112709E+000   9.997228E-001    -1.112709E+000   1.162086E-003    -6.320437E+000   
! Gamma  7.306847E-003    2.174077E+001    0.000000E+000    0.000000E+000    
! Port Impedance  5.000000E+001    0.000000E+000    5.000000E+001    0.000000E+000    

5.000000E-001    2.586991E-004    -1.571033E+002   9.996470E-001    -1.386982E+000   9.996470E-001    -1.386982E+000   1.736918E-003    -7.498194E+000   
! Gamma  8.169497E-003    2.717634E+001    0.000000E+000    0.000000E+000    
! Port Impedance  5.000000E+001    0.000000E+000    5.000000E+001    0.000000E+000    

6.000000E-001    4.968539E-004    -1.396469E+002   9.995825E-001    -1.660386E+000   9.995825E-001    -1.660386E+000   2.215476E-003    -1.054209E+001   
! Gamma  9.222414E-003    3.261205E+001    0.000000E+000    0.000000E+000    
! Port Impedance  5.000000E+001    0.000000E+000    5.000000E+001    0.000000E+000    

7.000000E-001    7.272201E-004    -1.316517E+002   9.995294E-001    -1.933289E+000   9.995294E-001    -1.933289E+000   2.614367E-003    -1.422134E+001   
! Gamma  1.046472E-002    3.804791E+001    0.000000E+000    0.000000E+000    
! Port Impedance  5.000000E+001    0.000000E+000    5.000000E+001    0.000000E+000    

8.000000E-001    9.470883E-004    -1.266370E+002   9.994864E-001    -2.205939E+000   9.994864E-001    -2.205939E+000   2.952062E-003    -1.808396E+001   
! Gamma  1.189539E-002    4.348398E+001    0.000000E+000    0.000000E+000    
! Port Impedance  5.000000E+001    0.000000E+000    5.000000E+001    0.000000E+000    

9.000000E-001    1.157894E-003    -1.231094E+002   9.994515E-001    -2.478483E+000   9.994515E-001    -2.478483E+000   3.244133E-003    -2.192687E+001   
! Gamma  1.351325E-002    4.892029E+001    0.000000E+000    0.000000E+000    
! Port Impedance  5.000000E+001    0.000000E+000    5.000000E+001    0.000000E+000    

1.000000E+000    1.361224E-003    -1.204869E+002   9.994232E-001    -2.751009E+000   9.994232E-001    -2.751009E+000   3.502520E-003    -2.565289E+001   
! Gamma  1.531697E-002    5.435685E+001    0.000000E+000    0.000000E+000    
! Port Impedance  5.000000E+001    0.000000E+000    5.000000E+001    0.000000E+000    

1.100000E+000    1.558373E-003    -1.184761E+002   9.994000E-001    -3.023565E+000   9.994000E-001    -3.023565E+000   3.736012E-003    -2.921593E+001   
! Gamma  1.730508E-002    5.979372E+001    0.000000E+000    0.000000E+000    
! Port Impedance  5.000000E+001    0.000000E+000    5.000000E+001    0.000000E+000    

1.200000E+000    1.750341E-003    -1.169057E+002   9.993808E-001    -3.296175E+000   9.993808E-001    -3.296175E+000   3.950949E-003    -3.259618E+001   
! Gamma  1.947598E-002    6.523091E+001    0.000000E+000    0.000000E+000    
! Port Impedance  5.000000E+001    0.000000E+000    5.000000E+001    0.000000E+000    

1.300000E+000    1.937884E-003    -1.156666E+002   9.993648E-001    -3.568852E+000   9.993648E-001    -3.568852E+000   4.151863E-003    -3.578778E+001   
! Gamma  2.182790E-002    7.066845E+001    0.000000E+000    0.000000E+000    
! Port Impedance  5.000000E+001    0.000000E+000    5.000000E+001    0.000000E+000    

1.400000E+000    2.121581E-003    -1.146850E+002   9.993513E-001    -3.841598E+000   9.993513E-001    -3.841598E+000   4.341982E-003    -3.879244E+001   
! Gamma  2.435895E-002    7.610638E+001    0.000000E+000    0.000000E+000    
! Port Impedance  5.000000E+001    0.000000E+000    5.000000E+001    0.000000E+000    

1.500000E+000    2.301871E-003    -1.139087E+002   9.993398E-001    -4.114415E+000   9.993398E-001    -4.114415E+000   4.523601E-003    -4.161587E+001   
! Gamma  2.706712E-002    8.154472E+001    0.000000E+000    0.000000E+000    
! Port Impedance  5.000000E+001    0.000000E+000    5.000000E+001    0.000000E+000    

1.600000E+000    2.479096E-003    -1.132995E+002   9.993298E-001    -4.387301E+000   9.993298E-001    -4.387301E+000   4.698352E-003    -4.426590E+001   
! Gamma  2.995024E-002    8.698350E+001    0.000000E+000    0.000000E+000    
! Port Impedance  5.000000E+001    0.000000E+000    5.000000E+001    0.000000E+000    

1.700000E+000    2.653524E-003    -1.128287E+002   9.993211E-001    -4.660252E+000   9.993211E-001    -4.660252E+000   4.867400E-003    -4.675129E+001   
! Gamma  3.300605E-002    9.242275E+001    0.000000E+000    0.000000E+000    
! Port Impedance  5.000000E+001    0.000000E+000    5.000000E+001    0.000000E+000    

1.800000E+000    2.825368E-003    -1.124744E+002   9.993134E-001    -4.933266E+000   9.993134E-001    -4.933266E+000   5.031576E-003    -4.908111E+001   
! Gamma  3.623215E-002    9.786249E+001    0.000000E+000    0.000000E+000    
! Port Impedance  5.000000E+001    0.000000E+000    5.000000E+001    0.000000E+000    

1.900000E+000    2.994800E-003    -1.122196E+002   9.993066E-001    -5.206339E+000   9.993066E-001    -5.206339E+000   5.191480E-003    -5.126431E+001   
! Gamma  3.962602E-002    1.033028E+002    0.000000E+000    0.000000E+000    
! Port Impedance  5.000000E+001    0.000000E+000    5.000000E+001    0.000000E+000    

2.000000E+000    3.161963E-003    -1.120506E+002   9.993004E-001    -5.479468E+000   9.993004E-001    -5.479468E+000   5.347546E-003    -5.330958E+001   
! Gamma  4.318503E-002    1.087436E+002    0.000000E+000    0.000000E+000    
! Port Impedance  5.000000E+001    0.000000E+000    5.000000E+001    0.000000E+000    

2.100000E+000    3.326976E-003    -1.119567E+002   9.992948E-001    -5.752651E+000   9.992948E-001    -5.752651E+000   5.500094E-003    -5.522515E+001   
! Gamma  4.690648E-002    1.141850E+002    0.000000E+000    0.000000E+000    
! Port Impedance  5.000000E+001    0.000000E+000    5.000000E+001    0.000000E+000    

2.200000E+000    3.489943E-003    -1.119289E+002   9.992896E-001    -6.025884E+000   9.992896E-001    -6.025884E+000   5.649367E-003    -5.701880E+001   
! Gamma  5.078751E-002    1.196270E+002    0.000000E+000    0.000000E+000    
! Port Impedance  5.000000E+001    0.000000E+000    5.000000E+001    0.000000E+000    

2.300000E+000    3.650957E-003    -1.119601E+002   9.992848E-001    -6.299168E+000   9.992848E-001    -6.299168E+000   5.795554E-003    -5.869780E+001   
! Gamma  5.482521E-002    1.250696E+002    0.000000E+000    0.000000E+000    
! Port Impedance  5.000000E+001    0.000000E+000    5.000000E+001    0.000000E+000    

2.400000E+000    3.810102E-003    -1.120442E+002   9.992804E-001    -6.572498E+000   9.992804E-001    -6.572498E+000   5.938808E-003    -6.026893E+001   
! Gamma  5.901657E-002    1.305129E+002    0.000000E+000    0.000000E+000    
! Port Impedance  5.000000E+001    0.000000E+000    5.000000E+001    0.000000E+000    

2.500000E+000    3.967456E-003    -1.121762E+002   9.992762E-001    -6.845875E+000   9.992762E-001    -6.845875E+000   6.079261E-003    -6.173850E+001   
! Gamma  6.335848E-002    1.359569E+002    0.000000E+000    0.000000E+000    
! Port Impedance  5.000000E+001    0.000000E+000    5.000000E+001    0.000000E+000    

2.600000E+000    4.123093E-003    -1.123518E+002   9.992722E-001    -7.119296E+000   9.992722E-001    -7.119296E+000   6.217033E-003    -6.311235E+001   
! Gamma  6.784777E-002    1.414016E+002    0.000000E+000    0.000000E+000    
! Port Impedance  5.000000E+001    0.000000E+000    5.000000E+001    0.000000E+000    

2.700000E+000    4.277085E-003    -1.125674E+002   9.992684E-001    -7.392761E+000   9.992684E-001    -7.392761E+000   6.352235E-003    -6.439593E+001   
! Gamma  7.248119E-002    1.468470E+002    0.000000E+000    0.000000E+000    
! Port Impedance  5.000000E+001    0.000000E+000    5.000000E+001    0.000000E+000    

2.800000E+000    4.429505E-003    -1.128199E+002   9.992647E-001    -7.666268E+000   9.992647E-001    -7.666268E+000   6.484976E-003    -6.559429E+001   
! Gamma  7.725542E-002    1.522932E+002    0.000000E+000    0.000000E+000    
! Port Impedance  5.000000E+001    0.000000E+000    5.000000E+001    0.000000E+000    

2.900000E+000    4.580425E-003    -1.131066E+002   9.992612E-001    -7.939818E+000   9.992612E-001    -7.939818E+000   6.615367E-003    -6.671210E+001   
! Gamma  8.216709E-002    1.577401E+002    0.000000E+000    0.000000E+000    
! Port Impedance  5.000000E+001    0.000000E+000    5.000000E+001    0.000000E+000    

3.000000E+000    4.729915E-003    -1.134251E+002   9.992578E-001    -8.213410E+000   9.992578E-001    -8.213410E+000   6.743521E-003    -6.775373E+001   
! Gamma  8.721277E-002    1.631879E+002    0.000000E+000    0.000000E+000    
! Port Impedance  5.000000E+001    0.000000E+000    5.000000E+001    0.000000E+000    

3.100000E+000    4.878049E-003    -1.137734E+002   9.992544E-001    -8.487044E+000   9.992544E-001    -8.487044E+000   6.869552E-003    -6.872326E+001   
! Gamma  9.238896E-002    1.686365E+002    0.000000E+000    0.000000E+000    
! Port Impedance  5.000000E+001    0.000000E+000    5.000000E+001    0.000000E+000    

3.200000E+000    5.024903E-003    -1.141496E+002   9.992511E-001    -8.760718E+000   9.992511E-001    -8.760718E+000   6.993580E-003    -6.962446E+001   
! Gamma  9.769214E-002    1.740859E+002    0.000000E+000    0.000000E+000    
! Port Impedance  5.000000E+001    0.000000E+000    5.000000E+001    0.000000E+000    

3.300000E+000    5.170552E-003    -1.145522E+002   9.992479E-001    -9.034434E+000   9.992479E-001    -9.034434E+000   7.115729E-003    -7.046089E+001   
! Gamma  1.031188E-001    1.795362E+002    0.000000E+000    0.000000E+000    
! Port Impedance  5.000000E+001    0.000000E+000    5.000000E+001    0.000000E+000    

3.400000E+000    5.315076E-003    -1.149795E+002   9.992447E-001    -9.308191E+000   9.992447E-001    -9.308191E+000   7.236126E-003    -7.123587E+001   
! Gamma  1.086652E-001    1.849874E+002    0.000000E+000    0.000000E+000    
! Port Impedance  5.000000E+001    0.000000E+000    5.000000E+001    0.000000E+000    

3.500000E+000    5.458553E-003    -1.154303E+002   9.992416E-001    -9.581989E+000   9.992416E-001    -9.581989E+000   7.354901E-003    -7.195251E+001   
! Gamma  1.143278E-001    1.904395E+002    0.000000E+000    0.000000E+000    
! Port Impedance  5.000000E+001    0.000000E+000    5.000000E+001    0.000000E+000    

3.600000E+000    5.601065E-003    -1.159034E+002   9.992384E-001    -9.855828E+000   9.992384E-001    -9.855828E+000   7.472189E-003    -7.261375E+001   
! Gamma  1.201030E-001    1.958925E+002    0.000000E+000    0.000000E+000    
! Port Impedance  5.000000E+001    0.000000E+000    5.000000E+001    0.000000E+000    

3.700000E+000    5.742697E-003    -1.163976E+002   9.992353E-001    -1.012971E+001   9.992353E-001    -1.012971E+001   7.588127E-003    -7.322235E+001   
! Gamma  1.259872E-001    2.013465E+002    0.000000E+000    0.000000E+000    
! Port Impedance  5.000000E+001    0.000000E+000    5.000000E+001    0.000000E+000    

3.800000E+000    5.883534E-003    -1.169118E+002   9.992322E-001    -1.040363E+001   9.992322E-001    -1.040363E+001   7.702852E-003    -7.378092E+001   
! Gamma  1.319765E-001    2.068015E+002    0.000000E+000    0.000000E+000    
! Port Impedance  5.000000E+001    0.000000E+000    5.000000E+001    0.000000E+000    

3.900000E+000    6.023663E-003    -1.174452E+002   9.992291E-001    -1.067760E+001   9.992291E-001    -1.067760E+001   7.816507E-003    -7.429192E+001   
! Gamma  1.380674E-001    2.122575E+002    0.000000E+000    0.000000E+000    
! Port Impedance  5.000000E+001    0.000000E+000    5.000000E+001    0.000000E+000    

4.000000E+000    6.163173E-003    -1.179967E+002   9.992259E-001    -1.095160E+001   9.992259E-001    -1.095160E+001   7.929231E-003    -7.475771E+001   
! Gamma  1.442562E-001    2.177145E+002    0.000000E+000    0.000000E+000    
! Port Impedance  5.000000E+001    0.000000E+000    5.000000E+001    0.000000E+000    

4.100000E+000    6.302152E-003    -1.185656E+002   9.992228E-001    -1.122565E+001   9.992228E-001    -1.122565E+001   8.041168E-003    -7.518052E+001   
! Gamma  1.505391E-001    2.231725E+002    0.000000E+000    0.000000E+000    
! Port Impedance  5.000000E+001    0.000000E+000    5.000000E+001    0.000000E+000    

4.200000E+000    6.440691E-003    -1.191509E+002   9.992197E-001    -1.149975E+001   9.992197E-001    -1.149975E+001   8.152459E-003    -7.556245E+001   
! Gamma  1.569127E-001    2.286316E+002    0.000000E+000    0.000000E+000    
! Port Impedance  5.000000E+001    0.000000E+000    5.000000E+001    0.000000E+000    

4.300000E+000    6.578883E-003    -1.197520E+002   9.992165E-001    -1.177388E+001   9.992165E-001    -1.177388E+001   8.263247E-003    -7.590554E+001   
! Gamma  1.633731E-001    2.340917E+002    0.000000E+000    0.000000E+000    
! Port Impedance  5.000000E+001    0.000000E+000    5.000000E+001    0.000000E+000    

4.400000E+000    6.716818E-003    -1.203679E+002   9.992133E-001    -1.204807E+001   9.992133E-001    -1.204807E+001   8.373671E-003    -7.621171E+001   
! Gamma  1.699169E-001    2.395530E+002    0.000000E+000    0.000000E+000    
! Port Impedance  5.000000E+001    0.000000E+000    5.000000E+001    0.000000E+000    

4.500000E+000    6.854591E-003    -1.209981E+002   9.992101E-001    -1.232229E+001   9.992101E-001    -1.232229E+001   8.483872E-003    -7.648282E+001   
! Gamma  1.765403E-001    2.450153E+002    0.000000E+000    0.000000E+000    
! Port Impedance  5.000000E+001    0.000000E+000    5.000000E+001    0.000000E+000    

4.600000E+000    6.992293E-003    -1.216418E+002   9.992069E-001    -1.259656E+001   9.992069E-001    -1.259656E+001   8.593988E-003    -7.672064E+001   
! Gamma  1.832399E-001    2.504788E+002    0.000000E+000    0.000000E+000    
! Port Impedance  5.000000E+001    0.000000E+000    5.000000E+001    0.000000E+000    

4.700000E+000    7.130018E-003    -1.222983E+002   9.992036E-001    -1.287088E+001   9.992036E-001    -1.287088E+001   8.704154E-003    -7.692687E+001   
! Gamma  1.900120E-001    2.559433E+002    0.000000E+000    0.000000E+000    
! Port Impedance  5.000000E+001    0.000000E+000    5.000000E+001    0.000000E+000    

4.800000E+000    7.267857E-003    -1.229669E+002   9.992003E-001    -1.314524E+001   9.992003E-001    -1.314524E+001   8.814506E-003    -7.710315E+001   
! Gamma  1.968532E-001    2.614091E+002    0.000000E+000    0.000000E+000    
! Port Impedance  5.000000E+001    0.000000E+000    5.000000E+001    0.000000E+000    

4.900000E+000    7.405905E-003    -1.236471E+002   9.991969E-001    -1.341965E+001   9.991969E-001    -1.341965E+001   8.925173E-003    -7.725104E+001   
! Gamma  2.037601E-001    2.668760E+002    0.000000E+000    0.000000E+000    
! Port Impedance  5.000000E+001    0.000000E+000    5.000000E+001    0.000000E+000    

5.000000E+000    7.544251E-003    -1.243381E+002   9.991935E-001    -1.369411E+001   9.991935E-001    -1.369411E+001   9.036285E-003    -7.737207E+001   
! Gamma  2.107292E-001    2.723441E+002    0.000000E+000    0.000000E+000    
! Port Impedance  5.000000E+001    0.000000E+000    5.000000E+001    0.000000E+000    

5.100000E+000    7.682987E-003    -1.250393E+002   9.991901E-001    -1.396862E+001   9.991901E-001    -1.396862E+001   9.147968E-003    -7.746769E+001   
! Gamma  2.177572E-001    2.778134E+002    0.000000E+000    0.000000E+000    
! Port Impedance  5.000000E+001    0.000000E+000    5.000000E+001    0.000000E+000    

5.200000E+000    7.822204E-003    -1.257502E+002   9.991866E-001    -1.424317E+001   9.991866E-001    -1.424317E+001   9.260343E-003    -7.753931E+001   
! Gamma  2.248407E-001    2.832839E+002    0.000000E+000    0.000000E+000    
! Port Impedance  5.000000E+001    0.000000E+000    5.000000E+001    0.000000E+000    

5.300000E+000    7.961989E-003    -1.264701E+002   9.991831E-001    -1.451778E+001   9.991831E-001    -1.451778E+001   9.373529E-003    -7.758828E+001   
! Gamma  2.319764E-001    2.887556E+002    0.000000E+000    0.000000E+000    
! Port Impedance  5.000000E+001    0.000000E+000    5.000000E+001    0.000000E+000    

5.400000E+000    8.102431E-003    -1.271985E+002   9.991795E-001    -1.479243E+001   9.991795E-001    -1.479243E+001   9.487643E-003    -7.761593E+001   
! Gamma  2.391613E-001    2.942286E+002    0.000000E+000    0.000000E+000    
! Port Impedance  5.000000E+001    0.000000E+000    5.000000E+001    0.000000E+000    

5.500000E+000    8.243615E-003    -1.279348E+002   9.991759E-001    -1.506714E+001   9.991759E-001    -1.506714E+001   9.602797E-003    -7.762350E+001   
! Gamma  2.463922E-001    2.997028E+002    0.000000E+000    0.000000E+000    
! Port Impedance  5.000000E+001    0.000000E+000    5.000000E+001    0.000000E+000    

5.600000E+000    8.385626E-003    -1.286784E+002   9.991722E-001    -1.534189E+001   9.991722E-001    -1.534189E+001   9.719098E-003    -7.761224E+001   
! Gamma  2.536659E-001    3.051782E+002    0.000000E+000    0.000000E+000    
! Port Impedance  5.000000E+001    0.000000E+000    5.000000E+001    0.000000E+000    

5.700000E+000    8.528546E-003    -1.294287E+002   9.991685E-001    -1.561670E+001   9.991685E-001    -1.561670E+001   9.836651E-003    -7.758330E+001   
! Gamma  2.609794E-001    3.106550E+002    0.000000E+000    0.000000E+000    
! Port Impedance  5.000000E+001    0.000000E+000    5.000000E+001    0.000000E+000    

5.800000E+000    8.672457E-003    -1.301853E+002   9.991647E-001    -1.589156E+001   9.991647E-001    -1.589156E+001   9.955557E-003    -7.753784E+001   
! Gamma  2.683299E-001    3.161330E+002    0.000000E+000    0.000000E+000    
! Port Impedance  5.000000E+001    0.000000E+000    5.000000E+001    0.000000E+000    

5.900000E+000    8.817438E-003    -1.309477E+002   9.991608E-001    -1.616648E+001   9.991608E-001    -1.616648E+001   1.007591E-002    -7.747695E+001   
! Gamma  2.757144E-001    3.216123E+002    0.000000E+000    0.000000E+000    
! Port Impedance  5.000000E+001    0.000000E+000    5.000000E+001    0.000000E+000    

6.000000E+000    8.963565E-003    -1.317152E+002   9.991569E-001    -1.644145E+001   9.991569E-001    -1.644145E+001   1.019781E-002    -7.740169E+001   
! Gamma  2.831302E-001    3.270929E+002    0.000000E+000    0.000000E+000    
! Port Impedance  5.000000E+001    0.000000E+000    5.000000E+001    0.000000E+000    

6.100000E+000    9.110912E-003    -1.324875E+002   9.991529E-001    -1.671647E+001   9.991529E-001    -1.671647E+001   1.032134E-002    -7.731308E+001   
! Gamma  2.905745E-001    3.325749E+002    0.000000E+000    0.000000E+000    
! Port Impedance  5.000000E+001    0.000000E+000    5.000000E+001    0.000000E+000    

