!Created with skrf (http://scikit-rf.org).
# GHz S RI R 50.0 
!freq
! ReS14 ImS14
!
! ReS24 ImS24
!
! ReS34 ImS34
!
! ReS44 ImS44
!
0.1 0.5126333673539261 -0.004430178566202583 0.4957004968722059 -0.0031849309453695165 -0.49570016106866416 0.003235446629869162 0.4957001054908859 -0.003243709713073929
 0.4957004968722046 -0.003184930944853298 0.49578401848773634 0.0005817748270130153 0.5042158690875209 -0.0008373772695752557 -0.5042158528975973 0.0008485424758287119
 -0.4957001610686637 0.0032354466298519877 0.5042158690875229 -0.0008373772690743918 0.49578417614304326 0.0005845002379440267 0.5042157885880443 -0.0007961520033571017
 0.4957001054908791 -0.0032437097145465105 -0.5042158528975971 0.0008485424763741744 0.5042157885880436 -0.0007961520045427042 0.4957841975669612 0.0005652110789755228
0.2 0.5125520362775693 -0.008848836385907315 0.49567752149204924 -0.006367735271376589 -0.49567617341247616 0.006468795066100104 0.49567595125290154 -0.006485358157962372
 0.4956775214920452 -0.006367735271430062 0.4957979076488413 0.0011662688398883007 0.504202143272023 -0.001677279601322377 -0.5042020783130803 0.0016995710130801396
 -0.49567617341247144 0.006468795066195373 0.504202143272025 -0.001677279601384486 0.4957985468776692 0.0011716494915776873 0.5042018378425293 -0.0015948154413849662
 0.4956759512529043 -0.006485358157749544 -0.5042020783130808 0.001699571013071409 0.5042018378425284 -0.0015948154409278 0.495798633923231 0.0011330711734773868
0.3 0.5124154618782713 -0.013269763073549287 0.4956402056158828 -0.0095495982501054 -0.4956371800529484 0.009701183776917362 0.49563667968213426 -0.009726036566130919
 0.49564020561588495 -0.009549598250021933 0.4958199976105674 0.0017484355192154528 0.5041794508880196 -0.002514983523779604 -0.5041793049121807 0.00254840936428164
 -0.4956371800529387 0.009701183777029911 0.5041794508880185 -0.0025149835237572556 0.4958214246346294 0.001756472773961054 0.5041787419070701 -0.002391281565988302
 0.4956366796821348 -0.009726036565987882 -0.5041793049121802 0.0025484093641233363 0.5041787419070721 -0.0023912815659554174 0.4958216187648002 0.0016986030527137805
0.4 0.5122229322988952 -0.017689313011630448 0.4955892900298457 -0.01273164788546809 -0.4955839169370597 0.012933743302632344 0.4955830269951898 -0.012966881098214485
 0.4955892900298445 -0.012731647885516614 0.4958495373061931 0.0023301713314992207 0.5041489649790479 -0.0033522443334157814 -0.5041487054981156 0.0033968054484240246
 -0.49558391693706005 0.012933743302467838 0.5041489649790488 -0.0033522443331841785 0.4958520655421363 0.0023408537377208895 0.5041476871234097 -0.0031872953753668883
 0.4955830269951882 -0.012966881098407719 -0.5041487054981151 0.003396805448591272 0.5041476871234092 -0.0031872953755427667 0.49585240932810204 0.0022636902106844474
0.5 0.5119750859687411 -0.02210590263927027 0.49552416392877974 -0.015914421257647648 -0.4955157720464182 0.01616700669604271 0.49551438116113583 -0.016208425136279507
 0.4955241639287832 -0.01591442125748932 0.49588714774366854 0.002912092355833218 0.5041101418852459 -0.00418967026698914 -0.5041097364037108 0.004245365743515024
 -0.4955157720464156 0.016167006695895474 0.5041101418852472 -0.004189670267126406 0.4958910923477165 0.002925400394882599 0.5041081323673137 -0.003983461346753529
 0.49551438116113034 -0.016208425136483212 -0.5041097364037106 0.004245365743814134 0.504108132367313 -0.0039834613469879095 0.49589162863524217 0.002828939749320463
0.6 0.5116724409490541 -0.026518761647970776 0.4954443221972065 -0.019097907015628645 -0.4954322397002392 0.019400957694171536 0.4954302365162619 -0.019450651885610893
 0.49544432219720186 -0.019097907015779063 0.49593334534474676 0.003494138611758934 0.5040625083935313 -0.005027199600230712 -0.5040619244468213 0.005094027615093784
 -0.49543223970023564 0.019400957694188585 0.5040625083935308 -0.005027199600284826 0.4959390219953879 0.0035100458695019876 0.504059606079242 -0.004779714212524314
 0.49543023651626683 -0.019450651885556357 -0.5040619244468235 0.00509402761499687 0.5040596060792424 -0.004779714212378222 0.49593979370513824 0.003394283817015861
0.7 0.5113153026369407 -0.030927369384558125 0.4953494748655858 -0.022281920914457118 -0.49533302958170217 0.02263540694357366 0.4953303027940668 -0.02269337122848489
 0.4953494748655867 -0.02228192091435745 0.4959884268741225 0.004076037453205343 0.5040058085365415 -0.0058645593703550575 -0.5040050137253621 0.005942517436988571
 -0.49533302958169734 0.022635406943642872 0.5040058085365409 -0.005864559370468023 0.49599615125497276 0.00409451109731585 0.5040018541029604 -0.0055757775567241066
 0.4953303027940633 -0.022693371228447133 -0.5040050137253637 0.005942517437006498 0.5040018541029609 -0.005575777556775392 0.49599720129409614 0.003959442377649988
0.8 0.5109038188073669 -0.03533126330809597 0.4952394959992123 -0.02546624924578089 -0.49521801549191846 0.025870135615930278 0.4952144538705089 -0.025936363501962014
 0.4952394959992084 -0.025466249245767687 0.49605251995546823 0.004657470639246869 0.5039399591887643 -0.0067014325543757036 -0.5039389212056818 0.006790517632133959
 -0.49521801549191047 0.025870135616016525 0.5039399591887646 -0.006701432554492828 0.4960626074774664 0.004678471752398772 0.5039347954323193 -0.006371331065825493
 0.4952144538705132 -0.0259363635019014 -0.5039389212056832 0.00679051763203728 0.50393479543232 -0.006371331065672563 0.4960639786905721 0.00452409016224522
0.9 0.5104380343553049 -0.03972996335328699 0.4951143701351785 -0.028650708894973686 -0.4950871817011681 0.02910495552028902 0.49508267410424023 -0.029179439662184548
 0.49511437013517623 -0.028650708894894482 0.49612563647304414 0.005238143202453258 0.5038649982290255 -0.007537527321105415 -0.5038636848743326 0.0076377358771017555
 -0.49508718170116467 0.029104955520279988 0.5038649982290258 -0.007537527321124058 0.49613840216252403 0.005261627071584343 0.5038584703543344 -0.007166079822412875
 0.4950826741042331 -0.02917943966224543 -0.503863684874331 0.007637735877145821 0.5038584703543343 -0.0071660798224189165 0.49614013731070655 0.0050879254982841085
1.0 0.5099179370263713 -0.04412294203290481 0.49497414666265577 -0.03183517175386526 -0.4949405772656609 0.03233973351918842 0.49493501264315354 -0.032422465720650946
 0.4949741466626526 -0.031835171753869816 0.4962077184107153 0.005817812262677311 0.5037810391249637 -0.008372606175608168 -0.5037794183124128 0.00848393423014481
 -0.49494057726566426 0.03233973351921469 0.5037810391249656 -0.008372606175639 0.49622347692669894 0.005843728613209785 0.503772994981011 -0.007959783460141184
 0.4949350126431572 -0.03242246572062057 -0.503779418312415 0.008483934230056675 0.5037729949810109 -0.007959783460072787 0.49622561868858517 0.005650699067583418
1.1 0.5093426425317389 -0.048508020610871914 0.49481976062635613 -0.035020639729968724 -0.49477918762147277 0.0355754621412533 0.4947724514148499 -0.03566643064834735
 0.49481976062635535 -0.03502063972998629 0.49629768750906955 0.006397558006020239 0.5036887494272135 -0.009207732954816921 -0.5036867880712452 0.009330168596025897
 -0.4947791876214702 0.03557546214129663 0.5036887494272121 -0.009207732954796492 0.49631666787165873 0.006425864733064113 0.5036790528012481 -0.008753501353601466
 0.4947724514148511 -0.03566643064829049 -0.5036867880712443 0.00933016859601693 0.5036790528012484 -0.008753501353663297 0.49631926979346447 0.006213488209564373
1.2 0.5087128581324156 -0.05288529146891678 0.4946505855342082 -0.03820667440306873 -0.4946023042154374 0.03881171301357787 0.4945942882063807 -0.038910910997185445
 0.49465058553420577 -0.038206674403100674 0.49639619134523694 0.006976726889206676 0.5035876737840177 -0.010042257267149406 -0.5035853422001421 0.010175798707036842
 -0.4946023042154321 0.038811713013586074 0.5035876737840164 -0.010042257267126257 0.49641876327938944 0.007007376329237705 0.5035761429698665 -0.009546591062081567
 0.49459428820638485 -0.038910910997162054 -0.5035853422001435 0.01017579870699302 0.5035761429698673 -0.009546591062068042 0.49642185841506453 0.006775645790847894
1.3 0.5080286738182057 -0.05725405491438208 0.4944665757022887 -0.04139332419457162 -0.49440989249955414 0.04204852089049526 0.49440048635948763 -0.04215594088123569
 0.49446657570229025 -0.04139332419456784 0.4965032531670255 0.007555275574646821 0.5034778004837495 -0.010876123035719547 -0.5034750669215367 0.011020767879419286
 -0.494409892499562 0.04204852089040902 0.5034778004837515 -0.010876123035657081 0.49652976366471774 0.007588193581897429 0.5034642619265309 -0.01033898281977237
 0.4944004863594854 -0.04215594088130139 -0.5034750669215369 0.011020767879410566 0.5034642619265299 -0.010338982819845842 0.4965333899106837 0.007337101878798243
1.4 0.5072901810456439 -0.06161361033089199 0.49426768731406845 -0.044580634040061955 -0.4942019192917718 0.045285922995909035 0.49419101134921584 -0.04540155616160685
 0.494267687314064 -0.04458063404011044 0.49661889075771837 0.008133151740359534 0.5033591214213763 -0.011709272070782309 -0.5033559528913337 0.011865016681882834
 -0.49420191929176965 0.04528592299592654 0.5033591214213764 -0.011709272070726317 0.49664966755236933 0.008168251598883874 0.5033434091652801 -0.011130610912168664
 0.49419101134921867 -0.045401556161582486 -0.5033559528913348 0.011865016681909476 0.5033434091652803 -0.011130610912205411 0.49665386587225535 0.007897789815975121
1.5 0.5064974756204746 -0.06596325550412054 0.4940538777585973 -0.04776864846413107 -0.49397835014427466 0.048523958650791454 0.49396582805181516 -0.0486477945733306
 0.49405387775859105 -0.047768648464147884 0.4967431167100992 0.008710298845924903 0.5032316308398191 -0.012541645709745173 -0.503227993812764 0.01270848505775328
 -0.4939783501442741 0.04852395865080912 0.5032316308398188 -0.012541645709691556 0.49677847380786233 0.008747488927866358 0.5032135847083518 -0.011921412757900289
 0.493965828051821 -0.04864779457333578 -0.5032279938127647 0.01270848505767414 0.5032135847083511 -0.011921412757908093 0.49678328672598576 0.008457645835279139
1.6 0.5056506596996844 -0.07030228664055531 0.493825104841357 -0.05095741254947466 -0.4937391478436091 0.051762668535597814 0.4937248990559438 -0.05189469526180397
 0.4938251048413539 -0.05095741254948227 0.49687593965868915 0.00928665891874946 0.5030953242626176 -0.013373185481397218 -0.5030911851643722 0.013551113245163582
 -0.49373914784360695 0.05176266853558007 0.5030953242626168 -0.013373185481337008 0.496916182604232 0.009325846074068205 0.5030747878866485 -0.012711327738322887
 0.49372489905594885 -0.051894695261794056 -0.5030911851643731 0.0135511132450934 0.5030747878866492 -0.012711327738338895 0.49692165312833 0.009016608178156006
1.7 0.5047498428945533 -0.07462999863539031 0.4935813258017196 -0.05414697183092614 -0.4934842717569456 0.05500209397465787 0.4934681838225976 -0.055142298184623795
 0.4935813258017198 -0.054146971830897575 0.497017365633137 0.009862173987866124 0.5029501977360984 -0.014203833261468748 -0.5029455232475056 0.014392842037981295
 -0.4934842717569433 0.055002093974684016 0.5029501977360974 -0.01420383326148181 0.49706279562162814 0.009903264348087132 0.5029270169105622 -0.013500296185298783
 0.49346818382259994 -0.05514229818461315 -0.5029455232475043 0.0143928420379285 0.5029270169105613 -0.013500296185222777 0.4970689665757983 0.00957461620899653
1.8 0.5037951427281585 -0.07894568546018467 0.4933224963275261 -0.057337371926536006 -0.49321367769391733 0.0582422763363711 0.4931956383981003 -0.05839064353843393
 0.49332249632752506 -0.05733737192653972 0.4971673991991845 0.01043678667561602 0.5027962473538327 -0.015033531194580492 -0.5027910045581893 0.01523361272396115
 -0.4932136776939142 0.05824227633642291 0.5027962473538309 -0.015033531194660802 0.4972183158776303 0.010479685095852223 0.5027702688619674 -0.014288258648043973
 0.4931956383980988 -0.05839064353843279 -0.5027910045581907 0.015233612723969912 0.5027702688619686 -0.01428825864801854 0.4972252295585491 0.010131609712697257
1.9 0.5027866847463178 -0.08324864058112393 0.49304856980143763 -0.060528658224524225 -0.492927318011947 0.061483256569204364 0.49290721541544763 -0.06163977127383906
 0.49304856980143685 -0.06052865822455951 0.49732604430072164 0.01101044030780408 0.5026334689927492 -0.015862221531812902 -0.5026276254180944 0.01607336689426839
 -0.49292731801194434 0.061483256569221365 0.5026334689927479 -0.01586222153183525 0.4973827474243959 0.011055049246611551 0.5026045398740965 -0.015075155427121779
 0.49290721541544763 -0.0616397712738388 -0.5026276254180958 0.01607336689422464 0.5026045398740985 -0.015075155427055289 0.4973904454821574 0.010687528408002796
2.0 0.5017246024821945 -0.08753815732472069 0.4927594968473962 -0.06372087565624601 -0.4926251418007935 0.06472507487772125 0.4926028642145604 -0.06488972073030572
 0.4927594968473915 -0.06372087565628738 0.4974933048219295 0.01158307878612309 0.5024618581908641 -0.016689846462398912 -0.5024553817882385 0.016912046228545474
 -0.49262514180079636 0.06472507487769535 0.5024618581908618 -0.016689846462364065 0.49755609503820736 0.011629297092768566 0.5024298253651921 -0.015860926315429544
 0.4926028642145609 -0.06488972073030194 -0.5024553817882379 0.016912046228545453 0.5024298253651936 -0.015860926315454254 0.49756461849620376 0.011242311648327848
2.1 0.5006090373736628 -0.09181352915186895 0.49245522511836715 -0.06691406852043687 -0.4923070950682552 0.0679677705191317 0.49228253099408614 -0.06814053038763651
 0.49245522511836715 -0.06691406852045849 0.4976691849247289 0.012154646367272856 0.5022814101114889 -0.017516347971450522 -0.5022742692004623 0.017749592304624025
 -0.49230709506826514 0.0679677705190892 0.5022814101114909 -0.01751634797141057 0.49773836395823656 0.012202368217344856 0.5022461202576908 -0.016645510483360847
 0.49228253099408736 -0.06814053038763221 -0.5022742692004626 0.017749592304597682 0.5022461202576904 -0.016645510483353988 0.4977477533070676 0.01179589826229869
2.2 0.49944013867722503 -0.09607404983880061 0.4921356992360778 -0.07010828033900583 -0.49197312089625833 0.07121138168982369 0.49194615895466637 -0.07139223771222956
 0.4921356992360805 -0.07010828033897852 0.4978536892225464 0.012725087430486783 0.5020921195549759 -0.01834166773292828 -0.5020842827580341 0.018585946448688988
 -0.49197312089625184 0.07121138168984885 0.5020921195549746 -0.018341667732997547 0.4979295596921188 0.012774201505910418 0.5020534191544088 -0.0174288464513632
 0.49194615895466287 -0.07139223771223416 -0.5020842827580331 0.018585946448697665 0.5020534191544087 -0.017428846451346968 0.49793985501278065 0.012348226486306664
2.3 0.4982180633970712 -0.10031901358373611 0.49180086081138724 -0.07330355373849533 -0.4916231595589651 0.0744559454707829 0.49159368841755513 -0.07464487906979206
 0.4918008608113887 -0.07330355373849745 0.49804682284386537 0.013294346272034963 0.50189398099264 -0.01916574703567478 -0.5018854171719849 0.01942104962751535
 -0.4916231595589685 0.07445594547078341 0.5018939809926393 -0.01916574703567966 0.49812968788573864 0.013344735198974588 0.5018517164655218 -0.01821087211121849
 0.49159368841755113 -0.07464487906978769 -0.5018854171719839 0.0194210496274979 0.5018517164655204 -0.018210872111242726 0.49814092897404455 0.012899233954682893
2.4 0.49694297623695494 -0.10454771506175854 0.49145064849991404 -0.07649993035643353 -0.4912571486046743 0.07770149780532916 0.49122505691416335 -0.07789848967955905
 0.4914506484999218 -0.0764999303564177 0.4982485914276898 0.013862366941687673 0.501686988607631 -0.0199885267347611 -0.5016776668119087 0.02025484237593092
 -0.4912571486046649 0.07770149780536277 0.5016869886076301 -0.01998852673478544 0.49833875424593366 0.013913906955253923 0.5016410064910769 -0.018991524767266555
 0.4912250569141727 -0.07789848967954392 -0.5016776668119103 0.02025484237592228 0.5016410064910791 -0.01899152476723867 0.49835098072251827 0.013448857717721413
2.5 0.4956150495764376 -0.10875944944801665 0.4910849980675752 -0.07969745076816646 -0.4908750229066286 0.0809480734926265 0.49084019924816974 -0.08115310359090723
 0.49108499806757044 -0.07969745076820017 0.49845900108128155 0.014429093120794718 0.5014711363343124 -0.020809947222624633 -0.5014610257587175 0.021087264750771394
 -0.4908750229066217 0.08094807349264306 0.5014711363343137 -0.020809947222621358 0.4985567645025977 0.014481653912718875 0.5014212834680128 -0.019770741181429772
 0.49084019924816924 -0.08115310359088584 -0.5014610257587182 0.021087264750754023 0.5014212834680121 -0.019770741181388288 0.4985700159015173 0.01399703427217435
2.6 0.49423446347001876 -0.11295351242420235 0.4907038424530032 -0.08289615443154622 -0.4904767146903193 0.08419570618321247 0.490439047534239 -0.08440875366907408
 0.49070384245299686 -0.08289615443156981 0.4986780583206385 0.01499446803877 0.5012464178924061 -0.02162994841103658 -0.5012354878528251 0.021918256303700107
 -0.49047671469032517 0.08419570618317826 0.5012464178924065 -0.02162994841098795 0.4987837243974423 0.015047912736119712 0.5011925415914289 -0.020548457612249764
 0.4904390475342372 -0.08440875366906771 -0.501235487852825 0.02191825630368248 0.50119254159143 -0.02054845761225244 0.4987980402320089 0.014543699592030532
2.7 0.49280140566629177 -0.11712920017834931 0.49030711182155423 -0.08609607964280994 -0.49006215354328514 0.08744442837137945 0.49002153121860403 -0.08766547158211917
 0.49030711182155573 -0.08609607964278489 0.49890577000639885 0.015558434418840729 0.5010128268146699 -0.022448469720633024 -0.5010010467351743 0.02274775606543961
 -0.49006215354328225 0.08744442837137893 0.5010128268146693 -0.022448469720659725 0.49901963968896235 0.015612619650296587 0.5009547750188351 -0.021324609844006515
 0.4900215312186039 -0.0876654715821165 -0.501001046735174 0.022747756065422207 0.5009547750188348 -0.021324609843958328 0.499035059496754 0.01508878915444492
2.8 0.4913160716433137 -0.12128580940486043 0.48989473360948826 -0.08929726349984851 -0.48963126641343835 0.09069427138083677 0.4895875770862041 -0.09092328778385478
 0.4898947336094852 -0.08929726349985588 0.49914214328238665 0.016120934445997607 0.5007703564685075 -0.023265450073466053 -0.5007576958805666 0.023575702536199696
 -0.48963126641344185 0.09069427138080212 0.5007703564685095 -0.023265450073424458 0.4992645161655686 0.016175710459151782 0.5007079778642218 -0.022099133203854985
 0.4895875770862027 -0.09092328778385009 -0.5007576958805676 0.023575702536190832 0.5007079778642213 -0.022099133203868436 0.49928107953650996 0.01563223795740909
2.9 0.4897786646571253 -0.12542263730804212 0.48946663255901945 -0.09249974186917861 -0.4891839776005184 0.09394526534175396 0.4891371092584511 -0.0941822314912695
 0.4894666325590209 -0.09249974186917712 0.4993871855199602 0.01668190975097936 0.5005190000724514 -0.024080827885810528 -0.5005054286241862 0.024402033679022835
 -0.4891839776005167 0.09394526534175363 0.5005190000724504 -0.02408082788582011 0.49951835966121655 0.016737120551307983 0.5004521441872356 -0.022871962569064336
 0.48913710925845233 -0.09418223149126621 -0.5005054286241861 0.02440203367904912 0.5004521441872362 -0.022871962569091412 0.4995361062534172 0.016173980529977643
3.0 0.48818939580031157 -0.12953898161167315 0.4890227307466282 -0.09570354935167294 -0.48872020874376065 0.09719743916094996 0.4886700491850293 -0.0974423306549895
 0.48902273074662467 -0.09570354935168553 0.4996409042687318 0.017241301403468134 0.5002587507088758 -0.02489454106076988 -0.5002442381826852 0.02522668691216756
 -0.4887202087437578 0.09719743916095822 0.5002587507088745 -0.024894541060761593 0.4997811760696183 0.01729678489648619 0.5001872679809669 -0.023643032364360286
 0.48867004918503437 -0.09744233065497011 -0.5002442381826864 0.025226686912132427 0.5001872679809676 -0.02364303236431045 0.49980014561803177 0.016713950934649627
