!Created with skrf (http://scikit-rf.org).
# GHz S RI R 50.0 
!freq
! ReS14 ImS14
!
! ReS24 ImS24
!
! ReS34 ImS34
!
! ReS44 ImS44
!
0.1 0.5069228948098988 -0.0071493908997908055 0.4976213520472955 -0.005686021742764802 0.49762054551766716 -0.005755346896314478 0.49762048093010686 -0.0057609661591673505
 0.4976213520472999 -0.005686021742586359 0.4976820051203371 0.0012472027126128322 -0.5023176983505623 0.0016635080611214065 -0.5023176798253635 0.0016695967899229831
 0.49762054551766777 -0.005755346896406725 -0.5023176983505625 0.0016635080613754912 0.49768242161040643 0.0012515956097805506 -0.5023175033167596 0.0015965157734886722
 0.4976204809301019 -0.005760966159791552 -0.5023176798253615 0.0016695967901859837 -0.5023175033167583 0.0015965157739096126 0.4976824486633872 0.0012399392697903461
0.2 0.5066810162973377 -0.014295124248840916 0.49755453636595504 -0.011372269599516658 0.4975513106330175 -0.011510871525264152 0.49755105257336996 -0.011522093516511633
 0.497554536365955 -0.011372269599568963 0.4977317947065126 0.002494431770097066 -0.5022670213638758 0.003326755653323399 -0.5022669473118185 0.003338916879251686
 0.4975513106330172 -0.011510871525399166 -0.5022670213638767 0.0033267556533586483 0.49773345925835194 0.002503174457237422 -0.5022662410869221 0.003192783641765339
 0.4975510525733699 -0.011522093516464625 -0.5022669473118228 0.003338916879120331 -0.5022662410869186 0.0031927836414760084 0.49773356714155415 0.0024798894717114077
0.3 0.506277509855621 -0.02143270577876428 0.49744368897056684 -0.017059838936055362 0.4974364312816277 -0.017267686220624138 0.49743585084992087 -0.01728451162742216
 0.49744368897056396 -0.017059838936139923 0.4978141359331156 0.0037412711016903614 -0.5021831970996852 0.004989639919007245 -0.5021830306657076 0.0050078754377837495
 0.4974364312816295 -0.01726768622057274 -0.5021831970996851 0.004989639919077277 0.4978178824926758 0.0037543070131716557 -0.5021814426161579 0.004788654126769537
 0.4974358508499198 -0.017284511627418293 -0.5021830306657097 0.0050078754378627246 -0.5021814426161563 0.00478865412646285 0.4978181254664095 0.0037193810729000223
0.4 0.5057131540329761 -0.028558256720121272 0.4972880745606238 -0.022749161582506557 0.4972751709075026 -0.023026198034370657 0.49727413902232526 -0.023048623499637454
 0.4972880745606253 -0.022749161582587253 0.49792974063160245 0.004987438101850538 -0.5020655173432149 0.006651816343236257 -0.5020652215848141 0.0066761243039272205
 0.4972751709074963 -0.023026198034495005 -0.5020655173432143 0.006651816343288876 0.4979364006962688 0.005004679068604969 -0.5020623993178307 0.006383772296706142
 0.4972741390223247 -0.023048623499662906 -0.5020652215848161 0.0066761243036993385 -0.5020623993178306 0.006383772296662434 0.4979368326725346 0.0049581025712530195
0.5 0.5049880281680189 -0.03566803839092809 0.49708773254175126 -0.028440551965450093 0.49706756781980543 -0.028786700463478417 0.4970659552720437 -0.02881472055553666
 0.4970877325417537 -0.02844055196543761 0.49807847545332606 0.006232475506335196 -0.5019141171728339 0.008312804807903492 -0.5019136551435737 0.00834318179082765
 0.49706756781980566 -0.028786700463494973 -0.501914117172831 0.008312804807772124 0.49808887857627904 0.006253804839909947 -0.5019092467079672 0.007977643778111233
 0.49706595527204406 -0.028814720555560266 -0.5019136551435713 0.008343181790888924 -0.501909246707966 0.007977643778075985 0.498089553241375 0.006195566885960204
0.6 0.5041023074146793 -0.0427579851868573 0.49684263301490866 -0.034134648071614655 0.4968135907005306 -0.0345498105882745 0.4968112681468408 -0.03458341799538716
 0.4968426330149065 -0.034134648071587406 0.4982602568894818 0.007476235712745493 -0.5017290812863971 0.009972443185884193 -0.5017284160616426 0.010008884411608026
 0.49681359070052866 -0.034549810588211896 -0.5017290812863968 0.009972443185901795 0.49827523101465465 0.007501509646646561 -0.5017220700481673 0.009570090843570812
 0.4968112681468391 -0.034583417995394446 -0.5017284160616398 0.010008884411695566 -0.5017220700481669 0.009570090843588414 0.4982762018868437 0.007431597634860053
0.7 0.5030564086528343 -0.04982399137770211 0.49655253673002026 -0.039832115112954335 0.496512998774745 -0.04031617197370541 0.49650983676047716 -0.040355357411612544
 0.496552536730015 -0.03983211511301139 0.4984751850115426 0.008718585491224813 -0.5015103101324815 0.01163058810079561 -0.5015094048584153 0.011673087344951783
 0.4965129987747529 -0.04031617197368512 -0.5015103101324849 0.011630588100725496 0.49849555665448436 0.008747634337786638 -0.5015007707102119 0.01116095325437831
 0.4965098367604809 -0.04035535741159496 -0.5015094048584139 0.011673087344942835 -0.5015007707102109 0.011160953254369596 0.49849687714261137 0.008666034082391702
0.8 0.5018509013440917 -0.056862024569754414 0.49621709041215833 -0.04553353321948969 0.49616543739459606 -0.0460863421427529 0.4961613064165694 -0.04613109417519845
 0.4962170904121583 -0.04553353321945274 0.4987234418194748 0.009959298473270501 -0.5012576212225771 0.013287006820386178 -0.5012564391990947 0.013335556243860305
 0.496165437394584 -0.046086342142832915 -0.501257621222573 0.013287006820517273 0.49875003622882347 0.009991927984288336 -0.5012451677678882 0.01274998013257584
 0.4961613064165724 -0.046131094175122116 -0.5012564391990928 0.013335556243868943 -0.5012451677678897 0.012749980132514629 0.4987517597148671 0.009898624010146708
0.9 0.5004864323970679 -0.063868127765285 0.49583590402947636 -0.051239398217377635 0.4957705155198948 -0.0518607932799401 0.495765286129647 -0.051911098099894346
 0.4958359040294798 -0.051239398217344495 0.4990052119393933 0.011198060751333684 -0.5009708279266162 0.014941382958669048 -0.500969332723797 0.014995972896269073
 0.49577051551989254 -0.05186079327991257 -0.5009708279266166 0.014941382958712926 0.4990388534366082 0.011234053777271928 -0.500955077021254 0.014336835637843782
 0.49576528612964565 -0.05191109809997277 -0.5009693327237976 0.014995972896321647 -0.5009550770212573 0.014336835637808923 0.49904103340349376 0.01112902971537158
1.0 0.49896369156814796 -0.07083839191412535 0.49540858539153093 -0.05695015099105792 0.4953278405042432 -0.05763994155707891 0.4953213834524376 -0.057695782747333384
 0.49540858539152244 -0.056950150991116694 0.49932064821431044 0.012434503546815173 -0.5006497732580188 0.01659334937594476 -0.5006479288664559 0.016653968102556066
 0.4953278405042355 -0.05763994155712999 -0.5006497732580175 0.01659334937596208 0.4993621608401481 0.012473621950885968 -0.5006303449830449 0.0159211318359513
 0.4953213834524417 -0.057695782747273314 -0.5006479288664583 0.016653968102486254 -0.500630344983046 0.01592113183593353 0.4993648510596868 0.012356861004361957
1.1 0.4972825013727848 -0.07776936818372455 0.4949350671681616 -0.0626663041291083 0.4948373193134285 -0.0634242986354942 0.49482952779543704 -0.06348566097675412
 0.4949350671681674 -0.06266630412907628 0.49967019642178856 0.01366889845388102 -0.5002940163103526 0.018243084086773973 -0.5002917998215853 0.018309717363310368
 0.494837319313429 -0.0634242986354946 -0.5002940163103465 0.018243084086861185 0.4997204259211566 0.013710844483509415 -0.5002705340024507 0.017503053692676785
 0.49482952779543166 -0.06348566097679144 -0.5002917998215811 0.018309717363441027 -0.5002705340024504 0.0175030536927028 0.49972364658396934 0.013582310204405675
1.2 0.4954441097170346 -0.0846562069121324 0.49441498627175734 -0.06838841790137852 0.4942986051272777 -0.06921438997962245 0.49428935042999067 -0.06928125785436044
 0.4944149862717549 -0.06838841790137028 0.5000533362722238 0.014900209280791242 -0.49990408335468195 0.019889575824084495 -0.4999014601332786 0.019962213147480957
 0.4942986051272738 -0.06921438997964144 -0.49990408335467834 0.01988957582411904 0.5001130980961078 0.01494466647347382 -0.4998761683800576 0.0190815633905506
 0.49428935042999145 -0.0692812578543301 -0.4999014601332809 0.01996221314748105 -0.49987616838006227 0.019081563390489643 0.5001168984465473 0.01480433732705729
1.3 0.4934494732159212 -0.09149492191431054 0.4938478739607662 -0.07411703491322877 0.4937112270204598 -0.07501073656764783 0.4937003791463087 -0.07508309261452266
 0.49384787396077273 -0.07411703491318893 0.5004701323588345 0.016128256240619913 -0.4994799124596554 0.02153263028388699 -0.49947684711897505 0.02161126010215685
 0.4937112270204547 -0.07501073656771133 -0.4994799124596531 0.021532630283965563 0.5005402364326816 0.01617487914181104 -0.4994471880505621 0.02065645105009093
 0.49370037914630294 -0.07508309261450309 -0.49947684711897306 0.021611260102121877 -0.4994471880505628 0.020656451050073635 0.5005446672851334 0.01602273152960898
1.4 0.49129958680345254 -0.09828155317751501 0.49323322674881126 -0.07985266819867348 0.49307467900627905 -0.08081382966804378 0.49306210677042733 -0.08089165454757956
 0.4932332267488117 -0.07985266819867057 0.5009206986266889 0.017352842557663728 -0.4990213923710485 0.02317203625051449 -0.49901784891259143 0.023256645740011194
 0.4930746790062819 -0.08081382966800493 -0.4990213923710483 0.02317203625050582 0.501001949286221 0.01740125686011017 -0.49898348380278373 0.022227489729096262
 0.4930621067704278 -0.08089165454759147 -0.49901784891259354 0.023256645740002628 -0.4989834838027833 0.022227489729131324 0.5010070627425429 0.017237264689863443
1.5 0.48899548919706437 -0.10501214756203699 0.492570509636145 -0.08559580906820571 0.4923884232637727 -0.08662413860434734 0.4923739944034095 -0.08670741083273983
 0.49257050963615295 -0.08559580906818645 0.5014051848552613 0.01857374818337826 -0.49852837603973105 0.024807559220706123 -0.498524318010113 0.02489813415453509
 0.49238842326376797 -0.08662413860439055 -0.4985283760397298 0.024807559220767095 0.5014983807631851 0.0186235506842401 -0.4984849108384266 0.023794429046376922
 0.4923739944034075 -0.08670741083272807 -0.4985243180101131 0.02489813415454375 -0.49848491083842617 0.023794429046385557 0.5015042298934194 0.018447685120404764
1.6 0.48653827131100974 -0.11168274688419622 0.49185915596030655 -0.09134693230233887 0.4916518899948523 -0.0924421158822403 0.4916354712779058 -0.09253081171164729
 0.4918591559603096 -0.091346932302335 0.5019237663037288 0.01979072818280199 -0.49800069100563255 0.026438939729898955 -0.497996081645049 0.026535464408930544
 0.4916518899948491 -0.09244211588226725 -0.49800069100563205 0.02643893972995127 0.5020297003095944 0.019841486620795868 -0.49795129917953146 0.025356993510702884
 0.49163547127790524 -0.09253081171161874 -0.49799608164504744 0.02653546440893911 -0.4979512991795325 0.02535699351065926 0.5020363388482849 0.019653715960655814
1.7 0.48392908518996547 -0.11828938122944109 0.4910985658331008 -0.09710649907172614 0.490864475874243 -0.09826820004999766 0.4908459332021642 -0.09836229338377843
 0.4910985658330999 -0.09710649907173043 0.5024766363131102 0.021003513440737486 -0.497438146829534 0.02806589401983994 -0.497432949202072 0.028168351245220047
 0.4908644758742385 -0.09826820005002618 -0.49743814682953386 0.028065894019874724 0.5025960952469062 0.02105476625854118 -0.49738246111862405 0.026914883192588352
 0.49084593320215725 -0.09836229338377525 -0.49743294920207026 0.02816835124521995 -0.49738246111862255 0.026914883192596908 0.5026035773245121 0.02085505588859595
1.8 0.4811691523622465 -0.12482806584021514 0.49028810417330393 -0.1028749581841358 0.4900255420984728 -0.10410281689488195 0.4900047406012415 -0.10420227922619751
 0.4902881041733078 -0.10287495818410355 0.5030640012714456 0.02221181231964846 -0.4968405401598345 0.029688115674605716 -0.49683471726425316 0.02979648674427869
 0.4900255420984737 -0.10410281689488304 -0.4968405401598334 0.02968811567461429 0.5031977656746632 0.022263068384156377 -0.49677819630040454 0.02846777536324011
 0.4900047406012367 -0.10420227922621705 -0.4968347172642538 0.029796486744304865 -0.4967781963004064 0.028467775363257477 0.5032061455870038 0.02205138078316339
1.9 0.4782597711726454 -0.13129480036703 0.48942709880005025 -0.10865274619437272 0.4891344124978533 -0.10994637950704346 0.48911121662105456 -0.11005117987437295
 0.4894270988000557 -0.10865274619437751 0.5036860773259982 0.0234153125386381 -0.49620765804810213 0.031305277487179706 -0.49620117291135146 0.03141954220585233
 0.4891344124978572 -0.10994637950703896 -0.4962076580481011 0.03130527748719689 0.5038349211284275 0.023466050838638116 -0.49613829505016716 0.030015326363022145
 0.48911121662105567 -0.11005117987437318 -0.49620117291134996 0.03141954220589582 -0.4961382950501678 0.030015326363030812 0.5038442531397767 0.02324234560500685
2.0 0.47520232298800974 -0.13768556961638398 0.4885148387709282 -0.11444028677497158 0.48819037189437947 -0.11579928760815479 0.4881646454791573 -0.1159093925621211
 0.48851483877092977 -0.11444028677496744 0.5043430883286262 0.024613682912128575 -0.4955392800270225 0.032917033191587064 -0.495532095783849 0.03303716988704118
 0.48819037189437947 -0.11579928760815479 -0.49553928002702125 0.032917033191543876 0.5045077784795443 0.024663352245626654 -0.4954625404633064 0.0315571733345388
 0.4881646454791532 -0.11590939256212554 -0.4955320957838478 0.033037169887093265 -0.49546254046330646 0.0315571733345388 0.5045181166527815 0.024427586135101584
2.1 0.47199827734080624 -0.14399634518018234 0.48755057301161 -0.12023798962450322 0.4871926647517975 -0.12166192642135162 0.4871642711089458 -0.12177729999970714
 0.48755057301160637 -0.1202379896245249 0.5050352646245959 0.025806574796070323 -0.4948351793410309 0.03452301890532245 -0.49482725930320065 0.03464900444708239
 0.48719266475179235 -0.12166192642134854 -0.49483517934103544 0.03452301890531416 0.505216560685889 0.025854593452768245 -0.4947507096469969 0.03309293566542067
 0.48716427110894844 -0.12177729999968434 -0.4948272593032019 0.03464900444705664 -0.49475070964699697 0.033092935665394625 0.5052279587329372 0.025606720418023043
2.2 0.46864919615745937 -0.1502230875242681 0.48653350922344873 -0.12604624909792447 0.4861404941039553 -0.1275346652646869 0.486109296083791 -0.12765526897243967
 0.486533509223443 -0.1260462490979438 0.5057628424024738 0.02699362319352194 -0.49409512361288566 0.03612285423352928 -0.49408643133102814 0.03625466405062373
 0.4861404941039534 -0.12753466526469914 -0.4940951236128903 0.03612285423352102 0.5059614961094584 0.027039378637203668 -0.4940025743975587 0.03462221609101587
 0.48610929608379355 -0.12765526897241858 -0.49408643133103136 0.0362546640505717 -0.4940025743975605 0.03462221609098976 0.5059740072560761 0.026779349863279577
2.3 0.46515673725122963 -0.1563617482547336 0.4854628130309437 -0.1318654426775326 0.485033020723252 -0.13341785598739034 0.4849988807826227 -0.13354364878068306
 0.4854628130309483 -0.1318654426775293 0.5065260634059535 0.02817444752610678 -0.4933188751460391 0.03771614303883502 -0.49330937446676926 0.03785375113638894
 0.4850330207232489 -0.1334178559873886 -0.49331887514603895 0.0377161430388436 0.5067428182001723 0.028217296077170263 -0.49321790151377043 0.03614460146339391
 0.4849988807826226 -0.13354364878068575 -0.49330937446676926 0.03785375113638893 -0.4932179015137712 0.03614460146335917 0.5067564950600881 0.027945060010684666
2.4 0.4615226572610999 -0.16240827238846076 0.48433760732497694 -0.13769592935964173 0.48386936248494666 -0.13931183132229363 0.4838321427529208 -0.1394427695951201
 0.4843376073249802 -0.1376959293596408 0.5073251748685158 0.029348652099173797 -0.4925061910026607 0.03930247390591894 -0.49249584612304437 0.03944585287874427
 0.48386936248494866 -0.1393118313222759 -0.4925061910026597 0.03930247390591028 0.5075607654052859 0.02938791861865222 -0.49239645288609185 0.037659663213321745
 0.4838321427529138 -0.13944276959515278 -0.4924958461230435 0.03944585287876158 -0.49239645288609213 0.037659663213347946 0.5075756598596688 0.02910342098870883
2.5 0.45774881420406255 -0.16835860053102272 0.4831569717585673 -0.14353804800229308 0.4826485938845683 -0.1452169031998485 0.4826081562277953 -0.14535294077305752
 0.4831569717585721 -0.14353804800227707 0.5081604295744646 0.030515826298386832 -0.49165682295437346 0.04088142033635094 -0.49164559847548067 0.04103054137988342
 0.4826485938845617 -0.1452169031998686 -0.4916568229543732 0.04088142033639423 0.5084155812068746 0.030550803872083483 -0.49153798545907723 0.03916695754306593
 0.48260815622779696 -0.14535294077303781 -0.4916455984754814 0.04103054137987491 -0.4915379854590767 0.039166957543065886 0.5084317442858296 0.030253987702523705
2.6 0.4538371697851358 -0.1742086709203209 0.48191994235701885 -0.14939211565840524 0.4813697456700072 -0.1511333610481803 0.48132595175883996 -0.15127444916014438
 0.4819199423570171 -0.149392115658401 0.5090320859794121 0.031675544553739055 -0.49077051737295696 0.042452540711972624 -0.49075837835391883 0.042607373629610173
 0.4813697456700024 -0.1511333610481843 -0.49077051737295563 0.042452540711981075 0.5093075142195684 0.031705494177244546 -0.4906422511343069 0.04066602538631984
 0.48132595175883675 -0.1512744491601508 -0.49075837835391906 0.04260737362962753 -0.49064225113430954 0.04066602538629396 0.5093249959830969 0.031396299789720306
2.7 0.4497897915831697 -0.17995442133172612 0.48062551120994085 -0.15525842590562547 0.4800318045565522 -0.15706147008889745 0.47998451593220404 -0.15720755738930503
 0.48062551120993585 -0.15525842590564423 0.5099404083438661 0.032827366107224754 -0.4898470151078462 0.04401537806022257 -0.48983392712150803 0.044175891268633666
 0.48003180455655386 -0.15706147008889426 -0.48984701510784867 0.044015378060188584 0.5102368183014685 0.032851516370075474 -0.48970899666076306 0.04215639217126093
 0.4799845159322046 -0.15720755738931078 -0.4898339271215071 0.04417589126862503 -0.4897089966607621 0.042156392171252305 0.5102556677177991 0.03252988137913502
2.8 0.44560885520579446 -0.18559179086307143 0.4792726262186842 -0.16113724717482097 0.4786337129982259 -0.16300146963205128 0.4785827911415544 -0.16315250217756327
 0.4792726262186828 -0.1611372471748251 0.5108856668480781 0.03397083461525511 -0.4888860513825462 0.04556945965478058 -0.48887198057357334 0.04573562018616192
 0.47863371299822577 -0.1630014696320624 -0.4888860513825425 0.04556945965477169 0.5112037526457665 0.0339883813838751 -0.488737963544751 0.04363756741790252
 0.4785827911415573 -0.16315250217754376 -0.48887198057357256 0.04573562018617039 -0.488737963544752 0.04363756741791136 0.511224017465473 0.033654240684313344
2.9 0.4412966464831015 -0.191116721632796 0.47786019087883924 -0.1670288210722167 0.4771743689955074 -0.1689535713643587 0.4771196753974043 -0.1691094926169461
 0.4778601908788431 -0.1670288210722246 0.5118681376661683 0.03510547761295107 -0.4878873557320737 0.047114296477893905 -0.48787226887829005 0.04728606998002833
 0.47717436899551685 -0.168953571364332 -0.48788735573207415 0.04711429647787689 0.5122085818307568 0.035115583712146924 -0.4877288880017016 0.04510904419751548
 0.4771196753973981 -0.1691094926169673 -0.48787226887829127 0.0472860699800455 -0.48772888800170217 0.045109044197515526 0.51223030845538 0.03476886945940284
3.0 0.43685556375066503 -0.19652516043038376 0.47638706408255416 -0.17293336068779255 0.47565262592455826 -0.1749179576226759 0.47559402215770014 -0.17507870845141735
 0.47638706408255904 -0.17293336068776233 0.5128881029849857 0.03623080586511573 -0.4868506519964299 0.048649382568615195 -0.4868345165737666 0.04882673330328886
 0.4756526259245522 -0.17491795762269913 -0.48685065199642674 0.04864938256865789 0.5132515758130818 0.036232600756798614 -0.48668150096462 0.04657029847814417
 0.4755940221576958 -0.1750787084514308 -0.486834516573766 0.04882673330330585 -0.4866815009646227 0.04657029847812743 0.51327480915741 0.03587324234204683
3.1 0.4322881202562215 -0.2018130603609808 0.47485205993037266 -0.1788510488784348 0.47406729237752193 -0.18089477964326903 0.47400464016952404 -0.1810602983282617
