!Created with skrf (http://scikit-rf.org).
# GHz S RI R 50.0 
!freq
! ReS14 ImS14
!
! ReS24 ImS24
!
! ReS34 ImS34
!
! ReS44 ImS44
!
150.0 0.7303425856958863 0.6830203140725338 -0.00476346951874705 -0.0030657463482384384 -0.004878783817525838 -0.0013117581340378495 -0.004912649924949448 -0.0009321118290095701
 -0.004763469518747048 -0.0030657463482384496 0.20545691016127732 -0.3828850617132783 -0.601795011399258 0.21228761507765123 -0.5957355934310901 0.22142766703846006
 -0.004878783817525839 -0.0013117581340378484 -0.6017950113992573 0.21228761507765098 0.23663517742460805 -0.32274152798826566 -0.636739894220568 0.16478833816671382
 -0.004912649924949309 -0.0009321118290097783 -0.5957355934310901 0.22142766703846006 -0.6367398942205688 0.164788338166714 0.23084638025556217 -0.3319050094538923
151.0 0.7735709455686169 0.6340221683622896 -0.00870865677124447 -0.00447256175261273 -0.008708071955096633 -0.0017869648328658037 -0.00872224670539445 -0.00130690263359759
 -0.008708656771244298 -0.004472561752612659 0.2036993820519827 -0.38375900221706 -0.6010010783215012 0.21455460901000442 -0.5948524940342472 0.22371773564850536
 -0.008708071955096945 -0.0017869648328660854 -0.6010010783215012 0.21455460901000442 0.23564594331791267 -0.323541201969206 -0.6361122936795195 0.16682542592185637
 -0.008722246705394288 -0.001306902633597566 -0.5948524940342479 0.22371773564850558 -0.6361122936795232 0.16682542592184554 0.22982685694701901 -0.3327541015698206
152.0 0.8146337812829709 0.5806220716036304 -0.012590260558004555 -0.0055420269186329816 -0.012410936333969062 -0.0019704880840038627 -0.012398218040625665 -0.0013962569956446273
 -0.012590260558004301 -0.005542026918632546 0.2019617852826502 -0.384654441509193 -0.6001848387699451 0.2167845227926769 -0.5939479531166622 0.2259697600567438
 -0.012410936333969488 -0.001970488084004165 -0.6001848387699451 0.2167845227926769 0.23466339089289862 -0.32436859639638926 -0.6354720859282894 0.16882512495195492
 -0.012398218040625405 -0.0013962569956449014 -0.5939479531166628 0.22596976005674402 -0.6354720859282894 0.1688251249519549 0.22881217459962733 -0.333630305685683
153.0 0.8536601291240831 0.5217673612120457 -0.016547722223844288 -0.006335706032953375 -0.016125507981590466 -0.00188789736433544 -0.016078599802082164 -0.0012218277385556
 -0.016547722223844288 -0.0063357060329533674 0.2002393829903057 -0.38555130404742266 -0.5993463355980249 0.21899625906813514 -0.5930215079341556 0.22820253781966782
 -0.01612550798159076 -0.0018878973643354292 -0.5993463355980241 0.21899625906813489 0.2336915649319889 -0.3252068149441698 -0.6348149999078785 0.17080431289034184
 -0.016078599802082098 -0.0012218277385555713 -0.5930215079341563 0.22820253781966804 -0.6348149999078785 0.17080431289034181 0.2278072783284587 -0.3345171982498336
154.0 0.8902175267389785 0.45670142697653454 -0.020668046407300234 -0.006864970640071616 -0.019932093943603037 -0.0015305708844231493 -0.01984305462654565 -0.000772896388522303
 -0.020668046407300134 -0.006864970640072057 0.19853114515760223 -0.3864378283355244 -0.5984840275470027 0.2212004467988321 -0.5920713486951656 0.23042660564484682
 -0.019932093943603315 -0.001530570884423155 -0.5984840275470027 0.2212004467988321 0.23273418994263145 -0.3260467497748346 -0.6341372753252121 0.17277216383023442
 -0.019843054626545616 -0.0007728963885218628 -0.5920713486951656 0.23042660564484682 -0.6341372753252115 0.17277216383023422 0.22681636882612968 -0.33540602124239466
155.0 0.9235093617639015 0.38486077711484534 -0.02501056333520884 -0.007111756655587895 -0.02387976352911463 -0.0008691871537714646 -0.023739658476872576 -1.9038825497570416e-05
 -0.0250105633352084 -0.007111756655588311 0.19683811804129084 -0.3873064815042892 -0.597595402935418 0.22340345508173468 -0.5910948169784118 0.2326482436523822
 -0.023879763529115274 -0.0008691871537718889 -0.597595402935418 0.22340345508173468 0.23179495618918788 -0.3268833440612636 -0.633435269617021 0.17473385258890192
 -0.023739658476872486 -1.9038825497089244e-05 -0.5910948169784118 0.2326482436523822 -0.6334352696170217 0.17473385258890212 0.22584338880487864 -0.33629201240592843
156.0 0.9524542626366613 0.3058559824727119 -0.029616899372570955 -0.0070371053188779545 -0.02799706885379159 0.00014065512661561185 -0.02779570866803329 0.0010845919703117964
 -0.029616899372570407 -0.0070371053188790144 0.1951627449639645 -0.38815218429988135 -0.5966772231460742 0.22560913038472002 -0.5900885991485163 0.23487120779040466
 -0.027997068853792263 0.00014065512661621792 -0.5966772231460735 0.22560913038471977 0.23087766070406301 -0.32771397871518493 -0.6327052668768463 0.17669215154408005
 -0.027795708668033176 0.00108459197031234 -0.5900885991485163 0.23487120779040466 -0.6327052668768455 0.1766921515440798 0.22489224989907688 -0.33717282203623616
157.0 0.9757231712984139 0.2194947522212753 -0.034514395124135656 -0.006584918980806556 -0.032295869475829984 0.0015557304746263633 -0.032021600466358234 0.0025946882032276963
 -0.03451439512413518 -0.006584918980807139 0.19350856014220635 -0.388971511479139 -0.595725636190971 0.22781957920559906 -0.5890488169856222 0.23709751027426262
 -0.0322958694758304 0.0015557304746264202 -0.595725636190971 0.22781957920559906 0.2299862643319088 -0.328537743914627 -0.6319433940705773 0.178648149187732
 -0.0320216004663581 0.002594688203228296 -0.5890488169856227 0.23709751027426285 -0.6319433940705773 0.17864814918773197 0.2239669282090092 -0.3380477974986173
158.0 0.9917659798966086 0.12583102193166207 -0.039716074876409456 -0.005683876541542231 -0.03677167447234042 0.0034433923518616006 -0.03641121785756905 0.00457802114085465
 -0.03971607487640945 -0.005683876541542925 0.1918800341660134 -0.38976236244408713 -0.5947362535727724 0.2300354972277141 -0.587971094318544 0.23932774835037707
 -0.03677167447234085 0.0034433923518616995 -0.5947362535727717 0.23003549722771383 0.2291248860707761 -0.3293551249736756 -0.6311456107606842 0.18060155674147774
 -0.036411217857568984 0.004578021140854631 -0.587971094318544 0.23932774835037707 -0.6311456107606842 0.18060155674147774 0.22307147528578572 -0.3389176726949946
159.0 0.9988451992071997 0.025231822957791566 -0.045218493647975144 -0.004248959138320048 -0.04140200621828085 0.005879662064349396 -0.04094036062475965 0.007109505757514654
 -0.045218493647975165 -0.004248959138320027 0.1902824683906709 -0.39052388835962887 -0.5937042379532513 0.23225625924776194 -0.5868506409735187 0.24156119551525682
 -0.04140200621828122 0.005879662064350211 -0.5937042379532513 0.23225625924776194 0.22829773706501724 -0.3301678994993249 -0.6303077649126604 0.18255080407905452
 -0.040940360624759455 0.0071095057575153485 -0.58685064097352 0.24156119551525732 -0.6303077649126643 0.18255080407904384 0.2222099580666256 -0.33978446235589754
160.0 0.9950889180715089 -0.08154504725624542 -0.05099816381768461 -0.002183506419257288 -0.046143620456994695 0.00894651988056856 -0.04556405488249868 0.010269442482846065
 -0.05099816381768399 -0.0021835064192572357 0.18872187800737 -0.39125657383353113 -0.5926244341766276 0.23447987478855753 -0.5856823835244094 0.24379576026578142
 -0.04614362045699532 0.008946519880568715 -0.5926244341766276 0.23447987478855753 0.22750898730828334 -0.3309791442018137 -0.6294257196181245 0.18449302578929277
 -0.045564054882497894 0.010269442482846763 -0.5856823835244107 0.24379576026578198 -0.6294257196181245 0.18449302578929277 0.22138632655793605 -0.34065146054545486
161.0 0.9785727157280095 -0.19327145109716629 -0.05700711593264578 0.0006174781682583362 -0.05092924499333977 0.012727872228015573 -0.05021341875615355 0.014139431103851515
 -0.05700711593264577 0.0006174781682583409 0.18720481927888719 -0.3919624137396909 -0.5914915706855761 0.2367028728659714 -0.5844611680251067 0.2460278761413354
 -0.05092924499333976 0.012727872228015573 -0.5914915706855761 0.2367028728659714 0.22676255463172712 -0.33179328814452375 -0.6284955603353275 0.1864240003275072
 -0.050213418756153524 0.014139431103851473 -0.5844611680251073 0.24602787614133564 -0.6284955603353283 0.18642400032750742 0.22060420253453633 -0.34152328048376424
162.0 0.9474373571412475 -0.3081799432646695 -0.06316823929979441 0.004262178543712331 -0.05566455638365679 0.017303805736730914 -0.054792807862454204 0.018796589015355025
 -0.06316823929979451 0.004262178543711221 0.1857381237440279 -0.39264513718347704 -0.5903005537885331 0.238920167545933 -0.5831820557111115 0.24825237495505334
 -0.05566455638365679 0.017303805736730914 -0.5903005537885331 0.238920167545933 0.22606180751054564 -0.3326161609259363 -0.6275138908528436 0.18833809383601297
 -0.05479280786245418 0.018796589015355004 -0.583182055711117 0.24825237495504382 -0.6275138908528443 0.1883380938360132 0.2198665838174313 -0.34240588447103654
163.0 0.9000444226611679 -0.4239220223752037 -0.06937126467900323 0.008854557863694181 -0.06022626956570613 0.022742953524266144 -0.05917811416702318 0.024305923046612495
 -0.06937126467900342 0.008854557863692965 0.18432851020310925 -0.3933104262715282 -0.5890468686467362 0.24112495792773242 -0.5818407240961322 0.2504623968960606
 -0.06022626956570681 0.02274295352426642 -0.5890468686467362 0.24112495792773242 0.225409181721743 -0.33345498457105677 -0.62647821789289 0.1902282601671264
 -0.059178114167022705 0.02430592304661355 -0.5818407240961335 0.2504623968960612 -0.6264782178928908 0.19022826016712663 0.21917546705287197 -0.3433065534784116
164.0 0.8351646243642497 -0.5375732201845779 -0.0754704988019811 0.014484595307845464 -0.06446236410627024 0.029093147799870864 -0.06321723050865957 0.030711054186765823
 -0.07547049880198228 0.014484595307844345 0.1829820599712024 -0.3939660657179643 -0.5877270847296647 0.24330872306527296 -0.5804339697039606 0.2526493976250169
 -0.06446236410627022 0.02909314779987088 -0.5877270847296654 0.24330872306527326 0.2248057271248843 -0.3343182556320599 -0.6253874080550447 0.19208615107591395
 -0.06321723050865882 0.030711054186765438 -0.5804339697039619 0.2526493976250175 -0.6253874080550462 0.1920861510759144 0.21853140803527185 -0.3442337446482153
165.0 0.7521835451733563 -0.645704483440144 -0.08128558036873541 0.021216575485666637 -0.0681954962123492 0.036371026091867674 -0.06673370563049445 0.03802398506721828
 -0.08128558036873543 0.021216575485666637 0.1817035661238346 -0.39462194806083195 -0.5863394381031451 0.24546137630860498 -0.5789602833442397 0.25480331580314436
 -0.0681954962123492 0.036371026091867674 -0.5863394381031445 0.24546137630860473 0.2242506245893937 -0.3352154665442165 -0.6242421769829056 0.19390238808471344
 -0.06673370563049374 0.03802398506721946 -0.578960283344241 0.25480331580314497 -0.6242421769829063 0.1939023880847137 0.2179330618684856 -0.3451967887884683
166.0 0.6512984376421905 -0.7445338237677759 -0.08660645669515553 0.02907649749021611 -0.07123042557177008 0.04455183713060493 -0.06953438097761595 0.04621516920210838
 -0.08660645669515654 0.029076497490216475 0.18049580383871414 -0.39528985728650057 -0.5848844298592683 0.24757163650189923 -0.5774204361549419 0.2569129566671951
 -0.07123042557177008 0.04455183713060493 -0.5848844298592683 0.24757163650189923 0.2237407410186444 -0.3361566295397933 -0.6230455426228084 0.19566703329190552
 -0.06953438097761594 0.04621516920210837 -0.5774204361549432 0.2569129566671957 -0.6230455426228092 0.19566703329190577 0.21737677197684033 -0.3462053955573809
167.0 0.5336707059632413 -0.8301601582482102 -0.09120334830350076 0.038040359335211084 -0.07336573257735707 0.053561211120152316 -0.07142123726074324 0.0552056418695122
 -0.09120334830350182 0.03804035933521155 0.17935881161365141 -0.39598297031517454 -0.5833653458592593 0.24962764821352149 -0.5758179813255021 0.2589666213010995
 -0.07336573257735704 0.05356121112015232 -0.5833653458592585 0.24962764821352115 0.2232703148994197 -0.33715159725401067 -0.6218031498904071 0.197370265588904
 -0.07142123726074245 0.055205641869511546 -0.5758179813255029 0.2589666213010998 -0.6218031498904085 0.19737026558890447 0.21685629937704262 -0.3472689657915735
168.0 0.4014960092497921 -0.8988635223277099 -0.09484162626394832 0.0480255665066973 -0.07440922429130126 0.06327090277139598 -0.07220680110541071 0.06486319174035579
 -0.09484162626394833 0.04802556650669729 0.17828931061380937 -0.39671505745268226 -0.5817885795880059 0.25161783679741995 -0.5741595543342215 0.26095296457144157
 -0.07440922429130126 0.06327090277139598 -0.5817885795880064 0.2516178367974202 0.22283087451780798 -0.3382092212985794 -0.6205233642520785 0.19900322168733775
 -0.0722068011054107 0.0648631917403558 -0.5741595543342267 0.2609529645714318 -0.6205233642520792 0.19900322168733797 0.2163627905567256 -0.34839575745530826
169.0 0.25796128006288477 -0.947436275187236 -0.0973003814630487 0.05888774485834733 -0.07419538766788888 0.07350027006732106 -0.07173143557724088 0.07500428150961297
 -0.09730038146304765 0.058887744858349036 0.177280405226653 -0.39749942797287985 -0.5801636416643686 0.2535319220347302 -0.5724548578078704 0.2628620030605455
 -0.07419538766788888 0.07350027006732106 -0.5801636416643686 0.2535319220347302 0.22241147438635586 -0.3393364451638377 -0.6192170481044111 0.200558906413682
 -0.07173143557724006 0.07500428150961211 -0.5724548578078711 0.26286200306054586 -0.6192170481044119 0.2005589064136822 0.21588506284513742 -0.34959200508896526
170.0 0.10707629074548665 -0.9734948981352255 -0.09839230749015475 0.07042462006802318 -0.07260235429601562 0.08402441801433053 -0.0698799718326146 0.08540257424749877
 -0.09839230749015476 0.07042462006802318 0.17632168660904665 -0.3983477421867629 -0.5785027770316639 0.2553619520797778 -0.5707162558990662 0.2646861336126952
 -0.07260235429601561 0.08402441801433051 -0.5785027770316645 0.25536195207977813 0.22199928682555697 -0.34053747417800484 -0.6178969819723267 0.2020330304532667
 -0.06987997183261459 0.08540257424749878 -0.5707162558990662 0.26468613361269516 -0.6178969819723276 0.20203303045326698 0.21541023559888156 -0.3508611356536877
171.0 -0.04660677597494161 -0.9757180978429659 -0.0979817545606937 0.08238738047047747 -0.06956545217223341 0.09458863260928559 -0.06659478714132094 0.09580361662607757
 -0.09798175456069373 0.08238738047047746 0.1753997968628704 -0.39926887292046803 -0.5768201833700147 0.25710318015362027 -0.5689579761138885 0.26642098586370594
 -0.06956545217223341 0.09458863260928559 -0.5768201833700147 0.25710318015362027 0.22158051121242245 -0.341813182700794 -0.6165769662548956 0.2034246160709915
 -0.06659478714132094 0.09580361662607757 -0.5689579761138885 0.26642098586370594 -0.616576966254897 0.20342461607099194 0.21492466107178435 -0.35220323669798315
172.0 -0.19834655956757205 -0.9539676808684096 -0.0959977928637619 0.09449836052530726 -0.0650847828579362 0.10492730565683316 -0.06188283243064841 0.1059438245603551
 -0.0959977928637591 0.09449836052530786 0.174499415506504 -0.400268021140641 -0.5751309154862648 0.25875461060114624 -0.5671950070556393 0.268065938518019
 -0.0650847828579362 0.10492730565683313 -0.5751309154862648 0.25875461060114624 0.22114148287230698 -0.34316089269547834 -0.6152707190253258 0.20473623659309134
 -0.0618828324306484 0.1059438245603551 -0.5671950070556401 0.26806593851801935 -0.6152707190253265 0.20473623659309154 0.2144150307787476 -0.3536149025114902
173.0 -0.3435824915999317 -0.9092720638160269 -0.09243996233360303 0.10647245440646824 -0.05922535973399014 0.11478447093665893 -0.05581523111548567 0.11557087279307848
 -0.09243996233360117 0.10647245440646982 0.1736045296366763 -0.4013462565983176 -0.5734496417273054 0.26031909603899794 -0.5654418599623889 0.2696241858888449
 -0.059225359733990145 0.11478447093665893 -0.5734496417273054 0.26031909603899794 0.22066980443638382 -0.344574588632246 -0.6139907442138616 0.20597382319903454
 -0.05581523111548771 0.11557087279307751 -0.5654418599623896 0.26962418588884524 -0.613990744213863 0.205973823199035 0.21386947864860903 -0.35508951221918544
174.0 -0.4782633171695337 -0.8436810804479011 -0.08737586572742667 0.11803886934301829 -0.05210986390294998 0.12393271219409314 -0.04851959129474811 0.12446227264666172
 -0.08737586572742667 0.11803886934301829 0.17269977875495052 -0.4025005692182476 -0.5717894602909064 0.2618029609451606 -0.563711401178922 0.2711023352460051
 -0.05210986390294998 0.12393271219409314 -0.5717894602909064 0.2618029609451606 0.22015530811845926 -0.3460455397343932 -0.6127473594857918 0.20714606475056885
 -0.0485195912947481 0.12446227264666174 -0.5637114011789227 0.27110233524600535 -0.6127473594857933 0.2071460647505693 0.21327849341064822 -0.3566179001017979
175.0 -0.5990887797154685 -0.7600256277591334 -0.08093141696279434 0.12895990490645334 -0.04390553860319481 0.1321876726899162 -0.0401666154897897 0.13243942734761988
 -0.08093141696279342 0.12895990490645187 0.1717716501599523 -0.40372440602023 -0.5701609691541611 0.2632152299881271 -0.5620139461405708 0.27250961742584584
 -0.043905538603194814 0.1321876726899162 -0.5701609691541605 0.26321522998812674 0.21959069536778883 -0.3475632121054928 -0.6115480369140225 0.20826351346640384
 -0.04016661548979012 0.13243942734762132 -0.5620139461405708 0.27250961742584584 -0.6115480369140232 0.2082635134664041 0.21263549530212153 -0.3581892931181508
176.0 -0.7036414259920798 -0.6616295048187603 -0.07327587941191474 0.13904431509710802 -0.03480771521838939 0.1394164957600628 -0.030953528376264795 0.1393755727827415
 -0.0732758794119115 0.1390443150971076 0.17080934574846612 -0.4050085678039168 -0.5685717180395827 0.2645666180637412 -0.5603567386945478 0.27385686970851303
 -0.03480771521838939 0.1394164957600628 -0.5685717180395833 0.2645666180637415 0.2189717780860502 -0.349116299149081 -0.6103971344453102 0.2093375631661187
 -0.030953528376265117 0.13937557278274312 -0.5603567386945478 0.27385686970851303 -0.6103971344453102 0.2093375631661187 0.21193701220093028 -0.35979234153045175
177.0 -0.7904094169238476 -0.552021311492385 -0.06460448399469229 0.14815412708726497 -0.025022729256214234 0.14553986125934731 -0.021087070470866498 0.14519734518305066
 -0.06460448399469156 0.14815412708726328 0.1698052280564665 -0.40634228056097244 -0.5670260782223664 0.26586847019015925 -0.5587438468717878 0.27515547871161866
 -0.02502272925621446 0.1455398612593473 -0.5670260782223664 0.26586847019015925 0.21829733598474282 -0.3506936937720801 -0.6092960083610639 0.21037947315168978
 -0.021087070470867 0.14519734518305064 -0.5587438468717884 0.27515547871161894 -0.6092960083610639 0.21037947315168978 0.2111824800426202 -0.3614160688986847
178.0 -0.8587198629694055 -0.4346841481376084 -0.05512134506017053 0.1562051189618208 -0.01475259766808155 0.15052844970485452 -0.010768389683926492 0.14988086578987067
 -0.05512134506016716 0.15620511896181993 0.16875485104580357 -0.40771425162541414 -0.5655254774188297 0.2671318192775267 -0.5571764187716318 0.276416448960171
 -0.014752597668081817 0.15052844970485452 -0.5655254774188297 0.2671318192775267 0.21756867870074598 -0.3522852657893179 -0.6082434243827783 0.21139957369513152
 -0.010768389683927007 0.14988086578987064 -0.5571764187716318 0.276416448960171 -0.6082434243827776 0.21139957369513127 0.21037376338295247 -0.3630506115729379
179.0 -0.9086120750231379 -0.31286542819302726 -0.04502477217308702 0.16316215600744285 -0.00418303486115303 0.1543954025335712 -0.00018135394265873136 0.15344394242918225
 -0.04502477217308702 0.16316215600744285 0.16765665916430625 -0.40911356218542544 -0.564068887742422 0.26836667288977356 -0.5556531847331048 0.2776497049229211
 -0.0041830348611532646 0.1543954025335712 -0.564068887742422 0.26836667288977356 0.21678904001532565 -0.35388237343990625 -0.6072361460314845 0.21240672693488102
 -0.0001813539426592354 0.15344394242918225 -0.5556531847331054 0.27764970492292146 -0.6072361460314837 0.21240672693488077 0.20951452649523974 -0.3646876849962707
