!Created with skrf (http://scikit-rf.org).
# GHz S RI R 50.0 
!freq
! ReS14 ImS14
!
! ReS24 ImS24
!
! ReS34 ImS34
!
! ReS44 ImS44
!
200.0 0.9264199649572952 0.3764341360787653 0.0003293176024367168 0.00038620528078437636 -0.00030968211284163353 -1.0822756441477232e-05 0.00030794055747818735 -0.00018976451562169663
 0.00032931760243670705 0.0003862052807843277 0.27095714515529334 -0.3383513269240595 0.626355650933684 -0.12220060144130032 -0.6225182911994394 0.13157319729106218
 -0.00030968211284163874 -1.082275644146563e-05 0.6263556509336857 -0.12220060144130185 0.27612791697970995 -0.28371953109044107 0.655129143372328 -0.08248034408378274
 0.00030794055747821857 -0.00018976451562169858 -0.6225182911994379 0.13157319729106193 0.6551291433723287 -0.08248034408378295 0.27102139501906103 -0.29275359076479424
201.0 0.9307997421747799 0.3654524148167315 0.0018492877569497952 0.0009327427396942692 -0.0018325574238001996 -0.00026936309947420687 0.001828799806203952 4.626454660779469e-05
 0.0018492877569498043 0.0009327427396942747 0.2699066496346978 -0.3384369552877906 0.6261770663877594 -0.12416892561705724 -0.6222885400371658 0.13357481046843697
 -0.0018325574238002022 -0.000269363099474201 0.6261770663877594 -0.12416892561705724 0.2756212117636069 -0.2836206831406229 0.6549536833992475 -0.08428374888561958
 0.0018287998062039542 4.626454660778753e-05 -0.6222885400371658 0.13357481046843697 0.6549536833992475 -0.08428374888561958 0.27049878294309526 -0.29269208950095343
202.0 0.9351643657501107 0.3540915572282243 0.003474310270685629 0.001488391178959628 -0.003455647086829907 -0.0005185482575050992 0.003449406951470207 0.00027219311923810995
 0.0034743102706856453 0.0014883911789596064 0.2688520821576168 -0.3384935079587086 0.6259927448284827 -0.1261610977797837 -0.6220527420992404 0.13559994471851167
 -0.003455647086829912 -0.0005185482575050943 0.6259927448284819 -0.12616109777978354 0.2751217915368849 -0.2834980606730079 0.6547678849278037 -0.08610897837404709
 0.0034494069514702107 0.0002721931192381095 -0.6220527420992412 0.1355999447185118 0.6547678849278051 -0.08610897837404752 0.26998363105970763 -0.2926069854890901
203.0 0.9395706874872098 0.34225666290950807 0.005271543274095474 0.002069295554480859 -0.00524517203945409 -0.0007631643924554687 0.0052359007331223735 0.0004922767845482309
 0.005271543274095122 0.0020692955544807136 0.2677879584932674 -0.3384982217525362 0.6258044544984096 -0.12819952463691042 -0.6218124859381413 0.13767097656077562
 -0.0052451720394542 -0.0007631643924556094 0.6258044544984104 -0.12819952463691053 0.2746315060942369 -0.2833300925931227 0.6545697016457772 -0.08797748297446403
 0.005235900733122518 0.0004922767845481567 -0.621812485938142 0.13767097656077576 0.6545697016457787 -0.08797748297446552 0.2694781192897611 -0.2924768341607649
204.0 0.9441150703483552 0.3293744633938137 0.007369150406904912 0.002710770755849907 -0.007328112119102885 -0.0010168135824236962 0.007315042761566389 0.0007191662762983707
 0.007369150406904815 0.002710770755849547 0.26670371951439886 -0.3384056098329997 0.6256150217309789 -0.1303290468382141 -0.6215702599195928 0.1398326694085545
 -0.007328112119102789 -0.0010168135824238358 0.6256150217309782 -0.13032904683821395 0.2741545985489225 -0.2830738609894243 0.6543546523289571 -0.08993213258398987
 0.00731504276156637 0.0007191662762983559 -0.621570259919596 0.13983266940854386 0.6543546523289578 -0.08993213258398972 0.2689871070306496 -0.2922589593956103
205.0 0.9490410733851785 0.31460858447843953 0.010085354577833164 0.003490623528247897 -0.010018545851486583 -0.0013039419386838157 0.010000451509325686 0.0009750052970398158
 0.010085354577833064 0.003490623528247696 0.26557513010965844 -0.33810657166843905 0.6254305212042236 -0.13265694890416888 -0.6213313587256687 0.14219212827885194
 -0.010018545851486572 -0.001303941938684109 0.6254305212042232 -0.1326569489041676 0.27370193208933247 -0.2826266045971834 0.6541111636582393 -0.09207540413204701
 0.010000451509325638 0.0009750052970396426 -0.6213313587256687 0.14219212827885194 0.6541111636582391 -0.09207540413204829 0.2685228802628918 -0.2918511870821309
206.0 0.9551211289541651 0.2950135990222258 0.014443031582564528 0.004646768997065336 -0.014324217108294207 -0.0016918195290604953 0.014298271375109448 0.001319792218860107
 0.014443031582564535 0.004646768997065082 0.26432892898588495 -0.3372497573287423 0.6252660907879157 -0.13552805406269786 -0.6211084497120198 0.14509357346811017
 -0.014324217108294245 -0.0016918195290607351 0.6252660907879155 -0.13552805406269894 0.27331258866758884 -0.2816586568641823 0.6537978900549646 -0.09473598176919035
 0.014298271375109266 0.0013197922188600962 -0.6211084497120198 0.14509357346811017 0.6537978900549646 -0.0947359817691899 0.2681290135188436 -0.29092578015228077
207.0 0.9664167878750152 0.25246993004958684 0.026667391175273145 0.007417773182825573 -0.026346140329120846 -0.002391609469798437 0.026298440634167784 0.0019212492741114513
 0.026667391175273263 0.007417773182825126 0.2625925848634296 -0.33369787239678333 0.6251442688068874 -0.1410288465263552 -0.6209093179525272 0.15061935399369814
 -0.026346140329121193 -0.002391609469798009 0.6251442688068876 -0.14102884652635528 0.2732884579208833 -0.2781859544445667 0.6530995727208921 -0.09989168547301815
 0.026298440634167718 0.001921249274111296 -0.6209093179525274 0.15061935399369814 0.6530995727208915 -0.09989168547301855 0.26813405244648986 -0.2875111842391721
208.0 0.8617127511073994 0.4950899731913785 -0.059514173774285264 -0.027093390175274314 0.060820047873582035 0.017055084415727277 -0.060827513981344894 -0.01688391809834113
 -0.05951417377428476 -0.027093390175277978 0.27278714818712263 -0.36408135614263654 0.6189495020175397 -0.11246391193141196 -0.6148894667292166 0.12210649622409962
 0.06082004787358103 0.017055084415730712 0.618949502017539 -0.11246391193141207 0.27374965903752246 -0.3079886940263304 0.652148368001771 -0.07183508101735722
 -0.060827513981344596 -0.016883918098341947 -0.6148894667292175 0.12210649622409969 0.6521483680017719 -0.07183508101735785 0.26815460432238136 -0.3172403979962506
209.0 0.9462133730496483 0.32346988665889775 -0.002627111908545539 -0.00032295235903424726 0.002687292715110867 0.0004981846887282681 -0.0027001869824751137 -0.0007833672838816087
 -0.002627111908545426 -0.00032295235903422037 0.26320988707732196 -0.34508417910663436 0.6238675472828025 -0.1338316329441936 -0.6196075968506438 0.1435015678095856
 0.0026872927151109765 0.0004981846887282114 0.6238675472828021 -0.1338316329441947 0.27139626968482383 -0.2886698157103349 0.6536570094589684 -0.09281688244956549
 -0.002700186982475119 -0.0007833672838815572 -0.6196075968506438 0.1435015678095856 0.6536570094589691 -0.09281688244956546 0.2660629050599357 -0.2980128615588586
210.0 0.9551457547095963 0.29597171863866206 0.0043737976769946925 0.0018282094553962837 -0.004275822534339947 -0.0004152352708872048 0.004252357775157344 6.600234943128459e-05
 0.004373797676994753 0.001828209455396541 0.26163344228219637 -0.34333986033962643 0.623858712972592 -0.1375781463817309 -0.6195328629059528 0.14727674590108578
 -0.004275822534340432 -0.00041523527088728436 0.6238587129725912 -0.13757814638173074 0.27098803381569847 -0.2868390840018128 0.6533447480616159 -0.09633087193867662
 0.004252357775157097 6.600234943130942e-05 -0.619532862905952 0.1472767459010856 0.6533447480616158 -0.09633087193867729 0.26566244876504097 -0.2962280757478461
211.0 0.9603267827369046 0.2784550025690351 0.00790946289078092 0.002802805120803119 -0.0077656002702527335 -0.0007460607067199261 0.007734336578774904 0.0003580841340720099
 0.00790946289078092 0.002802805120803102 0.26042732709692773 -0.3427950012154966 0.6236790696106238 -0.14012409553389304 -0.6192958736698883 0.14985237789959285
 -0.0077656002702528705 -0.0007460607067199274 0.6236790696106246 -0.1401240955338932 0.2705542837637039 -0.2861725711673457 0.6530632154398047 -0.09868126090233592
 0.007734336578774903 0.00035808413407204887 -0.6192958736698883 0.14985237789959285 0.6530632154398045 -0.09868126090233674 0.2652202795129096 -0.29560234580459943
212.0 0.9644059084901466 0.26370352736892766 0.010466399551751208 0.0034481327679861755 -0.010273482511256728 -0.0009132514662852211 0.010234998762543858 0.0004933987321915433
 0.010466399551751385 0.003448132767986152 0.2593222047545227 -0.34259306430899905 0.6234515615997771 -0.14232423090750404 -0.6190132922650631 0.1520823169344647
 -0.010273482511256728 -0.0009132514662852319 0.6234515615997771 -0.14232423090750404 0.2701107488968222 -0.2858398963888587 0.6527908673099858 -0.10069661011185567
 0.010234998762543662 0.0004933987321915365 -0.6190132922650631 0.1520823169344647 0.652790867309985 -0.1006966101118567 0.2647637501648226 -0.29530897641188825
213.0 0.9679632338031414 0.2500205180838804 0.01262841067439191 0.003949515068745353 -0.012382214097545068 -0.0010021655836863902 0.012336473121923756 0.0005529956789242959
 0.012628410674392427 0.0039495150687456 0.25825933763317205 -0.342533097634491 0.6232007889729274 -0.14437836095985032 -0.618708253491644 0.15416612878013441
 -0.012382214097544727 -0.0010021655836863796 0.6232007889729274 -0.14437836095985032 0.2696650437375907 -0.28564761128112215 0.6525187408943297 -0.10256991559492552
 0.012336473121923727 0.0005529956789242401 -0.618708253491644 0.1541661287801344 0.6525187408943297 -0.1025699155949254 0.2643031778034614 -0.29515544080363415
214.0 0.9711974478776366 0.2367929026775176 0.014605930604478665 0.004370776552809648 -0.014301288576973869 -0.001040667508802474 0.014247998495553008 0.0005631775908693693
 0.014605930604478776 0.004370776552809999 0.257218424134682 -0.342542744793301 0.6229347909083455 -0.14635826471380634 -0.6183882673478558 0.15617549631272387
 -0.014301288576974089 -0.0010406675088021975 0.6229347909083452 -0.14635826471380745 0.2692206702417547 -0.28552636317392327 0.6522428487268629 -0.10437035943078325
 0.014247998495552803 0.0005631775908692886 -0.6183882673478558 0.15617549631272387 0.6522428487268621 -0.10437035943078311 0.2638430393648632 -0.29507273460156125
215.0 0.9741932300911464 0.223740497020049 0.016494681006988587 0.004739502814962713 -0.01612568212445123 -0.0010399867431265708 0.016064412775725876 0.0005344520244189164
 0.016494681006988945 0.004739502814962985 0.25619058432544056 -0.3425891634279282 0.6226568901042798 -0.1482964382463809 -0.6180564137292534 0.15814286688528184
 -0.01612568212445125 -0.0010399867431265986 0.6226568901042784 -0.14829643824638059 0.26877952577619163 -0.28544481917176645 0.6519610704675568 -0.10612918932430762
 0.016064412775725654 0.0005344520244188059 -0.6180564137292541 0.158142866885282 0.6519610704675568 -0.10612918932430783 0.2633856793864525 -0.2950296934833538
216.0 0.9769910829919128 0.2107130239065398 0.01834554972936365 0.005069279030035615 -0.017905629214666374 -0.0010050010157037078 0.017835857175846983 0.0004713018186294323
 0.018345549729363808 0.005069279030035845 0.2551713348991872 -0.3426549648666545 0.6223686346352428 -0.15021002413446502 -0.6177141094807883 0.16008535328323747
 -0.017905629214666183 -0.0010050010157033552 0.6223686346352426 -0.15021002413446613 0.2683428193429879 -0.2853864970341816 0.6516720767113144 -0.10786283284525083
 0.017835857175846733 0.0004713018186294763 -0.6177141094807883 0.16008535328323747 0.6516720767113151 -0.10786283284525072 0.2629325482096737 -0.2950099334913038
217.0 0.9796111502496699 0.19761913832499559 0.02018900921803725 0.005367285057849679 -0.019670976679483965 -0.0009376622664019538 0.019592104047022378 0.0003754323067173079
 0.020189009218037696 0.005367285057849991 0.2541581950780758 -0.3427298089790533 0.6220707680508073 -0.1521091629854247 -0.6173620174745315 0.16201307486956734
 -0.019670976679484 -0.0009376622664019679 0.6220707680508065 -0.15210916298542457 0.26791144534598327 -0.2853416891715408 0.6513749005666312 -0.1095809542192615
 0.01959210404702213 0.00037543230671724 -0.6173620174745321 0.1620130748695675 0.651374900566631 -0.10958095421926217 0.262484687783432 -0.2950038140031131
218.0 0.9820628409426501 0.1843970682006422 0.022045213869440698 0.005637378296067805 -0.02144124439184736 -0.0008383580595376623 0.021352606171949277 0.0002470588861167387
 0.02204521386944069 0.005637378296067848 0.25314971591955027 -0.3428069308658805 0.6217636112193902 -0.15400044263546586 -0.6170004031846775 0.16393260227745
 -0.021441244391847906 -0.0008383580595376671 0.6217636112193895 -0.1540004426354657 0.26748615548452737 -0.2853041314699815 0.6510687439620996 -0.1112897781679611
 0.021352606171948996 0.0002470588861166608 -0.6170004031846782 0.16393260227745018 0.6510687439621001 -0.11128977816796119 0.2620429497302921 -0.2950051229353602
219.0 0.9843491934798035 0.17100091425562763 0.02392871330480411 0.005881503590508387 -0.02323031574706093 -0.0007065190565243214 0.02313118156534658 8.54800219238831e-05
 0.02392871330480445 0.005881503590508212 0.2521450356509451 -0.34288152192840715 0.6214472311749873 -0.15588850491838044 -0.61662929170722 0.1658485619029771
 -0.023230315747060946 -0.0007065190565243363 0.6214472311749873 -0.15588850491838047 0.26706764664031707 -0.2852694539555463 0.6507528799609298 -0.11299363670755173
 0.023131181565346562 8.548002192381143e-05 -0.61662929170722 0.1658485619029771 0.6507528799609305 -0.11299363670755207 0.26160810471605994 -0.2950095351845836
220.0 0.9864690142589403 0.15739363887647703 0.02585086759717091 0.006100393984565978 -0.025048836586631113 -0.0005409093175268093 0.02493840915786187 -0.00011065013215986964
 0.025850867597171253 0.006100393984565813 0.25114365683717316 -0.34294990241640955 0.6211215213552153 -0.15777686577271952 -0.6162485419351253 0.16776445467856282
 -0.025048836586631134 -0.0005409093175268028 0.6211215213552153 -0.15777686577271954 0.2666566103491629 -0.28523439158777847 0.6504265982173063 -0.11469575798800966
 0.024938409157861868 -0.0001106501321599187 -0.6162485419351253 0.16776445467856282 0.6504265982173063 -0.11469575798800964 0.26118090289666135 -0.2950138274989171
221.0 0.9884179730075896 0.1435431986518506 0.02782118276345926 0.006293937725462921 -0.02690553714990012 -0.00033976706341204405 0.02678294862108348 -0.0003431907651351327
 0.02782118276345924 0.006293937725462989 0.25014532711402615 -0.34300906558994415 0.620786240841884 -0.15966836534853807 -0.6158578824807334 0.16968310528011532
 -0.02690553714990014 -0.00033976706341206953 0.6207862408418838 -0.15966836534853915 0.2662537633995834 -0.28519635206936944 0.6500891711315995 -0.11639869907432356
 0.02678294862108347 -0.00034319076513518936 -0.6158578824807334 0.16968310528011532 0.6500891711315995 -0.11639869907432356 0.26076211057600196 -0.2950154486318479
222.0 0.9901891644916743 0.12942026778250904 0.029848099264990654 0.006461373803068454 -0.028808007847699334 -0.00010086742048543687 0.028672314530176893 -0.0006144574561009371
 0.029848099264990657 0.0064613738030684 0.2491499725797438 -0.34305640970901274 0.6204410329171696 -0.16156543037314633 -0.6154569283418498 0.1716069238150553
 -0.028808007847699695 -0.00010086742048544446 0.6204410329171696 -0.16156543037314633 0.2658598687765807 -0.2851531643571668 0.6497398302453273 -0.11810459828804987
 0.02867231453017688 -0.0006144574561011058 -0.6154569283418498 0.1716069238150553 0.6497398302453273 -0.11810459828804987 0.2603525347361712 -0.2950122693420337
223.0 0.9917733739331012 0.11499681447645749 0.03193948613740532 0.006601392082915389 -0.03076318038935753 0.00017845976830130014 0.03061335610069795 -0.000927207993776059
 0.031939486137404924 0.006601392082915375 0.2481576602123703 -0.34308957060651085 0.6200854323441113 -0.1634702353326975 -0.615045187093449 0.17353806645964437
 -0.030763180389357887 0.00017845976830184164 0.6200854323441121 -0.1634702353326977 0.26547575175488347 -0.28510292419252986 0.6493777475697887 -0.1198153303167963
 0.030613356100697934 -0.0009272079937762865 -0.6150451870934484 0.1735380664596442 0.6493777475697885 -0.11981533031679742 0.25995304139890996 -0.2950024289901379
224.0 0.9931591628915899 0.10024515552951008 0.03410296873276484 0.006712176012823676 -0.03277764157729738 0.0005013408209890095 0.03261256965455609 -0.0012846556530252905
 0.03410296873276475 0.006712176012824118 0.2471685777388668 -0.34310631065418934 0.6197188659759452 -0.16538480647633563 -0.6146220588826301 0.17547853901995572
 -0.032777641577297775 0.0005013408209895899 0.619718865975945 -0.16538480647633563 0.26510231394472256 -0.2850438942319818 0.6490020189298883 -0.12153260616693365
 0.03261256965455607 -0.0012846556530255314 -0.6146220588826301 0.17547853901995572 0.6490020189298883 -0.12153260616693365 0.25956457119872983 -0.2949842365475071
225.0 0.9943328347923863 0.08513728783419464 0.03634615862071048 0.00679140778366159 -0.03485784785119868 0.000871389509644545 0.03467631180157319 -0.001690502150010738
 0.03634615862071041 0.006791407783661916 0.24618302508949338 -0.3431044405695445 0.6193406489758005 -0.1673110923641225 -0.6141868323176757 0.17743026712855658
 -0.034857847851198685 0.0008713895096445349 0.6193406489758005 -0.1673110923641225 0.2647405471390976 -0.2849744361241082 0.6486116475893718 -0.12325804038603784
 0.03467631180157318 -0.0016905021500108572 -0.6141868323176757 0.17743026712855658 0.6486116475893721 -0.12325804038603672 0.25918815431371 -0.29495610349934304
226.0 0.9952783098316025 0.0696443835474503 0.03867682419091006 0.006836246648014976 -0.037010278746885096 0.0012927545557091912 0.036810951436825515 -0.002148986337586011
 0.038676824190909946 0.006836246648015638 0.2452014143997844 -0.34308176103026866 0.6189499776861931 -0.1692510144170632 -0.6137386771627545 0.17939514653125252
 -0.0370102787468851 0.0012927545557091821 0.6189499776861928 -0.16925101441706425 0.2643915483233295 -0.284892961965538 0.6482055270531756 -0.12499319802606211
 0.03681095143682593 -0.002148986337586316 -0.6137386771627538 0.1793951465312523 0.6482055270531748 -0.12499319802606194 0.25882492626605624 -0.2949164961593107
227.0 0.9959769228316472 0.053736382602107266 0.04110302463143637 0.006843286137795472 -0.03924155158592084 0.0017701813624001724 0.039022982818880815 -0.002664946832299537
 0.04110302463143529 0.006843286137795945 0.24422427694522467 -0.34303601670231865 0.6185459194441046 -0.17120650544508417 -0.6132766340360067 0.18137508142876838
 -0.039241551585921304 0.0017701813624001962 0.6185459194441046 -0.17120650544508417 0.2640565369191599 -0.28479789801861716 0.6477824223007842 -0.12673962852274212
 0.039022982818881266 -0.0026649468322994434 -0.6132766340360036 0.18137508142877898 0.647782422300785 -0.1267396285227423 0.25847614573592476 -0.29486390032867466
228.0 0.9964071480093847 0.03738164249507223 0.04363322125179189 0.0068084930209531 -0.04155851097547043 0.002309087414646724 0.041319113262860446 -0.0032438980934403373
 0.04363322125179337 0.006808493020953509 0.24325227608667221 -0.3429648584154483 0.6181273991405348 -0.17317954103123473 -0.6127996008294273 0.18337201572425046
 -0.04155851097547243 0.0023090874146461534 0.6181273991405348 -0.17317954103123473 0.2637368751181451 -0.28468765666633433 0.6473409489175163 -0.12849889074262622
 0.04131911326286254 -0.0032438980934385063 -0.6127996008294273 0.1833720157242505 0.6473409489175163 -0.12849889074262622 0.2581432152704618 -0.2947967943012997
229.0 0.9965442483034214 0.020546620642176015 0.04627637520783187 0.006727128944365281 -0.04396830171494592 0.0029156517978841255 0.04370633399923892 -0.003892120455475786
 0.046276375207830976 0.00672712894436414 0.24228622561244154 -0.3428658109582587 0.6176931819669188 -0.1751721667831069 -0.612306315229252 0.18538796013806969
 -0.04396830171494679 0.002915651797886538 0.6176931819669174 -0.17517216678310651 0.26343409195489337 -0.2845606143955148 0.646879549710002 -0.13027257179663895
