!
! **************************************************
!< FTYP RSP
!< PROG EM 6.0a, id cambridge1.7795, on Sun/Solaris 831177c9 ttgsa.
!< CMD em  -dv -rf72T6_noChoke_500.d  f72T6_noChoke.geo  --  Mon Jun 16 15:24:12 2003
!< CKDATE Mon Jun 16 15:22:52 2003 ! Last time f72T6_noChoke.geo was updated.
! Maximum subsection size is lambda/10 at 500 GHz. Estimated Eeff = 3.4.
! All dimensions are in micron.
!  A = 56.700000(126), B = 80.000000(160), C = 100.800000, with 3 layers.
!  Lay H(micron)   Erel    Etan(d)  Esigma    Murel   Mtan(d)  Nz  Subs
!   0  100.0000 1.000000 0.000000 0.000000 1.000000 0.000000   2   338
!   1  0.400000 1.000000 0.000000 0.000000 1.000000 0.000000   2   571
!   2  0.400000 5.800000 0.000000 0.000000 1.000000 0.000000   2     0
!   Estimated Memory:    8 Mbytes              Subsection Total:   909
! Ports:  4 Box-Wall
! Circuit has vias, loss.
! Loss parameters of metals used in circuit:
!   Top Cover    -- Rdc: 376.73  Rrf: 0  Xdc: 0  Ls: 0
!   Ground Plane -- Rdc: 0.000106716  Rrf: 1.29815e-08  Xdc: 0  Ls: 0.14735
!                -- Rdc: 0.000106716  Rrf: 1.29815e-08  Xdc: 0  Ls: 0.14735
! Circuit and excitation are symmetric about X axis.
! De-embedded 20 Ohm S-Params. Mag/Ang. Touchstone Format (S11 S21 S12 S22):
! Port 1 normalized to 20 Ohms.
! Port 2 normalized to 20 Ohms.
! Comments following s-parameters give port data with following syntax:
! P#  F=x GHz  Eeff=(x+jy)  Z0=(x+jy) Ohms  R=x Ohms  C=x pF
! All box-wall reference planes are zero length.
# GHZ S MA R 20
! Pre-computational time (seconds)     -- Subsectioning: 0, Caching: 0
! Analysis time per frequency (mm:ss)  -- 0:46 user, 0:00 system, 0:47 real
! Analysis time per function (seconds) -- Modes: 0, Fill: 13, Solve: 11
!
500.000000 0.961514 135.21 0.274457 -114.6 0.274457 -114.6 0.961577 175.58
!< P1 F=500.00 Eeff=(7.7271 -5.e-4) Z0=(9.580387 -0.00034) R=0.00949 C=0.000430
!< P2 F=500.00 Eeff=(7.3402 -7.e-4) Z0=(5.754223 -0.00029) R=0.00000 C=-0.00057
! Total time for 1 freq (mm:ss) -- 0:46 user, 0:00 system, 0:47 real
! 
510.000000 0.961535 133.28 0.274371 -115.8 0.274371 -115.8 0.961601 175.04
!< P1 F=510.00 Eeff=(7.7364 -5.e-4) Z0=(9.583767 -0.00034) R=0.00996 C=0.000430
!< P2 F=510.00 Eeff=(7.3698 -7.e-4) Z0=(5.753506 -0.00029) R=0.00000 C=-0.00062
! 
520.000000 0.961515 131.32 0.274429 -117.1 0.274429 -117.1 0.961584 174.51
!< P1 F=520.00 Eeff=(7.7461 -5.e-4) Z0=(9.587305 -0.00035) R=0.01045 C=0.000429
!< P2 F=520.00 Eeff=(7.4003 -7.e-4) Z0=(5.752996 -0.00029) R=0.00000 C=-0.00067
! 
530.000000 0.961387 129.24 0.274863 -118.4 0.274863 -118.4 0.961459 173.97
!< P1 F=530.00 Eeff=(7.7562 -5.e-4) Z0=(9.591016 -0.00035) R=0.01095 C=0.000429
!< P2 F=530.00 Eeff=(7.4318 -7.e-4) Z0=(5.752722 -0.00029) R=0.00000 C=-0.00072
! 
540.000000 0.961226 127.15 0.275411 -119.7 0.275411 -119.7 0.961302 173.44
!< P1 F=540.00 Eeff=(7.7667 -5.e-4) Z0=(9.594886 -0.00035) R=0.01147 C=0.000429
!< P2 F=540.00 Eeff=(7.4643 -7.e-4) Z0=(5.752693 -0.00029) R=0.00000 C=-0.00078
! 
550.000000 0.961000 125.01 0.276182 -121.0 0.276182 -121.0 0.961080 172.92
!< P1 F=550.00 Eeff=(7.7776 -5.e-4) Z0=(9.598943 -0.00035) R=0.01200 C=0.000429
!< P2 F=550.00 Eeff=(7.4978 -7.e-4) Z0=(5.752943 -0.00030) R=0.00000 C=-0.00083
! 
560.000000 0.960694 122.79 0.277226 -122.4 0.277226 -122.4 0.960778 172.39
!< P1 F=560.00 Eeff=(7.7891 -5.e-4) Z0=(9.603198 -0.00035) R=0.01255 C=0.000429
!< P2 F=560.00 Eeff=(7.5325 -7.e-4) Z0=(5.753494 -0.00030) R=0.00000 C=-0.00089
! 
570.000000 0.960327 120.52 0.278480 -123.8 0.278480 -123.8 0.960414 171.86
!< P1 F=570.00 Eeff=(7.8010 -5.e-4) Z0=(9.607668 -0.00036) R=0.01312 C=0.000428
!< P2 F=570.00 Eeff=(7.5683 -7.e-4) Z0=(5.754365 -0.00030) R=0.00000 C=-0.00094
! 
580.000000 0.959913 118.17 0.279883 -125.2 0.279883 -125.2 0.960005 171.34
!< P1 F=580.00 Eeff=(7.8135 -5.e-4) Z0=(9.612371 -0.00036) R=0.01371 C=0.000428
!< P2 F=580.00 Eeff=(7.6054 -8.e-4) Z0=(5.755594 -0.00030) R=0.00000 C=-0.00100
! 
590.000000 0.959441 115.76 0.281478 -126.7 0.281478 -126.7 0.959538 170.82
!< P1 F=590.00 Eeff=(7.8266 -6.e-4) Z0=(9.617326 -0.00036) R=0.01431 C=0.000428
!< P2 F=590.00 Eeff=(7.6437 -8.e-4) Z0=(5.757213 -0.00031) R=0.00000 C=-0.00106
! 
600.000000 0.958883 113.27 0.283350 -128.2 0.283350 -128.2 0.958986 170.30
!< P1 F=600.00 Eeff=(7.8403 -6.e-4) Z0=(9.622556 -0.00036) R=0.01494 C=0.000428
!< P2 F=600.00 Eeff=(7.6834 -8.e-4) Z0=(5.759261 -0.00031) R=0.00000 C=-0.00112
! 
610.000000 0.958262 110.66 0.285421 -129.8 0.285421 -129.8 0.958370 169.77
!< P1 F=610.00 Eeff=(7.8547 -6.e-4) Z0=(9.628085 -0.00037) R=0.01558 C=0.000427
!< P2 F=610.00 Eeff=(7.7246 -8.e-4) Z0=(5.761780 -0.00031) R=0.00000 C=-0.00118
! 
620.000000 0.957589 107.97 0.287650 -131.4 0.287650 -131.4 0.957702 169.24
!< P1 F=620.00 Eeff=(7.8698 -6.e-4) Z0=(9.633946 -0.00037) R=0.01625 C=0.000427
!< P2 F=620.00 Eeff=(7.7673 -8.e-4) Z0=(5.764813 -0.00032) R=0.00000 C=-0.00124
! 
630.000000 0.956801 105.23 0.290234 -133.0 0.290234 -133.0 0.956921 168.71
!< P1 F=630.00 Eeff=(7.8858 -6.e-4) Z0=(9.640174 -0.00038) R=0.01693 C=0.000427
!< P2 F=630.00 Eeff=(7.8117 -8.e-4) Z0=(5.768419 -0.00032) R=0.00000 C=-0.00131
! 
640.000000 0.955998 102.30 0.292842 -134.8 0.292842 -134.8 0.956125 168.18
!< P1 F=640.00 Eeff=(7.9028 -6.e-4) Z0=(9.646815 -0.00038) R=0.01764 C=0.000426
!< P2 F=640.00 Eeff=(7.8579 -8.e-4) Z0=(5.772665 -0.00032) R=0.00000 C=-0.00137
! 
650.000000 0.955104 99.312 0.295718 -136.5 0.295718 -136.5 0.955238 167.64
!< P1 F=650.00 Eeff=(7.9207 -6.e-4) Z0=(9.653921 -0.00038) R=0.01836 C=0.000426
!< P2 F=650.00 Eeff=(7.9061 -8.e-4) Z0=(5.777618 -0.00033) R=0.00000 C=-0.00144
! 
660.000000 0.954124 96.183 0.298838 -138.4 0.298838 -138.4 0.954265 167.10
!< P1 F=660.00 Eeff=(7.9398 -6.e-4) Z0=(9.661556 -0.00039) R=0.01912 C=0.000426
!< P2 F=660.00 Eeff=(7.9564 -9.e-4) Z0=(5.783356 -0.00033) R=0.00000 C=-0.00150
! 
670.000000 0.953111 92.946 0.302005 -140.2 0.302005 -140.2 0.953265 166.57
!< P1 F=670.00 Eeff=(7.9603 -6.e-4) Z0=(9.669809 -0.00039) R=0.01989 C=0.000426
!< P2 F=670.00 Eeff=(8.0092 -9.e-4) Z0=(5.789991 -0.00034) R=0.00000 C=-0.00157
! 
680.000000 0.951959 89.558 0.305599 -142.2 0.305599 -142.2 0.952117 166.02
!< P1 F=680.00 Eeff=(7.9823 -6.e-4) Z0=(9.678782 -0.00040) R=0.02069 C=0.000425
!< P2 F=680.00 Eeff=(8.0648 -9.e-4) Z0=(5.797655 -0.00035) R=0.00000 C=-0.00164
! 
690.000000 0.950819 86.054 0.309095 -144.2 0.309095 -144.2 0.950986 165.46
!< P1 F=690.00 Eeff=(8.0062 -7.e-4) Z0=(9.688629 -0.00041) R=0.02152 C=0.000425
!< P2 F=690.00 Eeff=(8.1236 -9.e-4) Z0=(5.806545 -0.00035) R=0.00000 C=-0.00171
! 
700.000000 0.949536 82.363 0.312976 -146.4 0.312976 -146.4 0.949714 164.90
!< P1 F=700.00 Eeff=(8.0323 -7.e-4) Z0=(9.699566 -0.00042) R=0.02238 C=0.000425
!< P2 F=700.00 Eeff=(8.1862 -9.e-4) Z0=(5.816872 -0.00036) R=0.00000 C=-0.00178
! 
710.000000 0.948163 78.404 0.317069 -148.6 0.317069 -148.6 0.948352 164.32
!< P1 F=710.00 Eeff=(8.0614 -7.e-4) Z0=(9.711925 -0.00042) R=0.02327 C=0.000424
!< P2 F=710.00 Eeff=(8.2537 -1.e-3) Z0=(5.829017 -0.00037) R=0.00000 C=-0.00186
! 
720.000000 0.946712 74.312 0.321102 -151.0 0.321102 -151.0 0.946957 163.73
!< P1 F=720.00 Eeff=(8.0946 -7.e-4) Z0=(9.726306 -0.00043) R=0.02419 C=0.000424
!< P2 F=720.00 Eeff=(8.3276 -1.e-3) Z0=(5.843596 -0.00038) R=0.00000 C=-0.00193
! 
730.000000 0.945212 69.912 0.325668 -153.5 0.325668 -153.5 0.945428 163.13
!< P1 F=730.00 Eeff=(8.1345 -7.e-4) Z0=(9.744127 -0.00045) R=0.02515 C=0.000424
!< P2 F=730.00 Eeff=(8.4120 -1.e-3) Z0=(5.862044 -0.00040) R=0.00000 C=-0.00201
! 
740.000000 0.940151 65.087 0.329573 -156.3 0.329573 -156.3 0.943305 162.46
!< P1 F=740.00 Eeff=(8.1923 -0.011) Z0=(9.771199 -0.00608) R=0.00000 C=0.000423
!< P2 F=740.00 Eeff=(8.5227 -0.016) Z0=(5.890013 -0.00578) R=0.00000 C=-0.00208
! 
750.000000 0.927919 60.218 0.331965 -159.1 0.331965 -159.1 0.940096 161.84
!< P1 F=750.00 Eeff=(8.2383 -0.043) Z0=(9.791582 -0.02273) R=0.00000 C=0.000423
!< P2 F=750.00 Eeff=(8.6174 -0.062) Z0=(5.912421 -0.02187) R=0.00000 C=-0.00216
! 
760.000000 0.914709 55.417 0.333763 -161.9 0.333763 -161.9 0.936818 161.23
!< P1 F=760.00 Eeff=(8.2767 -0.076) Z0=(9.807651 -0.04020) R=0.00000 C=0.000423
!< P2 F=760.00 Eeff=(8.7018 -0.110) Z0=(5.931477 -0.03905) R=0.00000 C=-0.00224
! 
770.000000 0.900592 50.538 0.335156 -164.8 0.335156 -164.8 0.933417 160.63
!< P1 F=770.00 Eeff=(8.3107 -0.111) Z0=(9.821160 -0.05836) R=0.00000 C=0.000422
!< P2 F=770.00 Eeff=(8.7806 -0.161) Z0=(5.948827 -0.05723) R=0.00000 C=-0.00232
! 
780.000000 0.885718 45.630 0.336104 -167.6 0.336104 -167.6 0.929916 160.04
!< P1 F=780.00 Eeff=(8.3414 -0.148) Z0=(9.832680 -0.07709) R=0.00000 C=0.000422
!< P2 F=780.00 Eeff=(8.8550 -0.215) Z0=(5.965020 -0.07633) R=0.00000 C=-0.00240
! 
790.000000 0.870223 40.609 0.336593 -170.5 0.336593 -170.5 0.926318 159.45
!< P1 F=790.00 Eeff=(8.3690 -0.186) Z0=(9.842481 -0.09631) R=0.00000 C=0.000422
!< P2 F=790.00 Eeff=(8.9258 -0.272) Z0=(5.980320 -0.09632) R=0.00000 C=-0.00248
! 
800.000000 0.854306 35.575 0.336660 -173.3 0.336660 -173.3 0.922626 158.87
!< P1 F=800.00 Eeff=(8.3939 -0.225) Z0=(9.850726 -0.11592) R=0.00000 C=0.000421
!< P2 F=800.00 Eeff=(8.9932 -0.330) Z0=(5.994880 -0.11717) R=0.00000 C=-0.00256
! 
