! 750 GHZ TWINSLOT ANTENNA IMPEDANCE FILE
! This file is Touchstone-compatible
# GHz Z RI R 1
! F      Zr      Zi
!-----------------------
0	0.001	0.00
1	0.001	0.00
20	0.001	0.00
50	0.001	0.00
150   0.55567   25.8791
225   4.04400   45.7034
300   19.5998   71.9824
375   76.1540   87.6101
450   116.649   40.1870
525   89.2070   -9.76003
600   58.0916   -11.0935
675   39.2787   -10.4171
750   27.5145   8.00436
825   19.3975   20.4247
900   17.7766   34.8062
975   19.3377   51.7264
1050   28.3669   73.2960
1125   53.4393   88.7857
1200   96.9553   82.4893
1275   108.110   15.4140
1350   75.5829   -3.16617
1425   51.1058   -0.38197
1500   35.9132   1.34115
1575   25.2513   2.66857
1650   13.4670   6.64675
1725   4.47231   8.04169
1800   8.98E-02   3.43832
1875   2.96624   0.24927
1950   11.8301   8.02927
2025   21.9092   17.2298
2100   40.7944   14.4884
2175   39.9513   -6.22268
2250   36.4996   -7.37769
2325   31.2455   -8.59890
2400   27.7090   -6.93267
2475   19.8950   -1.29414
2550   16.6314   2.33088
2625   15.4091   7.08290
2700   13.0683   9.48088
2775   17.2023   12.8406
2850   25.7784   14.2050
2925   31.4353   16.1179
3000   37.7169   15.0021
